  can0  18EEFF00   [8]  8E F2 DD E8 00 96 64 40
  can0  0CF00300   [8]  FC 00 FF FF FF FF FF FF
  can0  0CF00400   [8]  FF FF FF 8A 03 FF FF FF
  can0  18FEF600   [8]  FF FF 3D 32 FF FF FF FF
  can0  0CF00400   [8]  FF FF FF 8A 03 FF FF FF
  can0  0CF00400   [8]  FF FF FF 8A 03 FF FF FF
  can0  0CF00300   [8]  FC 00 FF FF FF FF FF FF
  can0  0CF00400   [8]  FF FF FF 8A 03 FF FF FF
  can0  18FEF200   [8]  FF FF FF FF FF FF 11 FF
  can0  0CF00400   [8]  FF FF FF 8A 03 FF FF FF
  can0  0CF00300   [8]  FC 00 FF FF FF FF FF FF
  can0  0CF00400   [8]  FF FF FF 8A 03 FF FF FF
  can0  0CF00400   [8]  FF FF FF 8A 03 FF FF FF
  can0  0CF00400   [8]  FF FF FF 8A 03 FF FF FF
  can0  0CF00300   [8]  FC 00 FF FF FF FF FF FF
  can0  0CF00400   [8]  FF FF FF 8A 03 FF FF FF
  can0  18FEF200   [8]  FF FF FF FF FF FF 11 FF
  can0  0CF00400   [8]  FF FF FF 8A 03 FF FF FF
  can0  0CF00300   [8]  FC 00 FF FF FF FF FF FF
  can0  0CF00400   [8]  FF FF FF 8A 03 FF FF FF
  can0  0CF00400   [8]  FF FF FF 8A 03 FF FF FF
  can0  18FEEE00   [8]  3E FF FF FF FF FF FF FF
  can0  0CF00400   [8]  FF FF FF 8A 03 FF FF FF
  can0  0CF00300   [8]  FC 00 FF FF FF FF FF FF
  can0  0CF00400   [8]  FF FF FF 8A 03 FF FF FF
  can0  18FEF200   [8]  FF FF FF FF FF FF 11 FF
  can0  0CF00400   [8]  FF FF FF 8A 03 FF FF FF
  can0  0CF00300   [8]  FC 00 FF FF FF FF FF FF
  can0  0CF00400   [8]  FF FF FF F5 06 FF FF FF
  can0  18FEF700   [8]  FF FF FF FF D6 00 FF FF
  can0  0CF00400   [8]  FF FF FF F5 06 FF FF FF
  can0  18FEF500   [8]  CB FF FF FF FF FF FF FF
  can0  0CF00400   [8]  FF FF FF F5 06 FF FF FF
  can0  0CF00300   [8]  FC 00 FF FF FF FF FF FF
  can0  0CF00400   [8]  FF FF FF F5 06 FF FF FF
  can0  18FEF200   [8]  FF FF FF FF FF FF 11 FF
  can0  0CF00400   [8]  FF FF FF F5 06 FF FF FF
  can0  0CF00300   [8]  FC 00 FF FF FF FF FF FF
  can0  0CF00400   [8]  FF FF FF F5 06 FF FF FF
  can0  18FECA00   [8]  00 FF 00 00 00 00 FF FF
  can0  0CF00400   [8]  FF FF FF F5 06 FF FF FF
  can0  0CF00400   [8]  FF FF FF B7 06 FF FF FF
  can0  0CF00300   [8]  FC 00 FF FF FF FF FF FF
  can0  0CF00400   [8]  FF FF FF B7 06 FF FF FF
  can0  18FEF200   [8]  FF FF FF FF FF FF 11 FF
  can0  0CF00400   [8]  FF FF FF B7 06 FF FF FF
  can0  0CF00300   [8]  FC 00 FF FF FF FF FF FF
  can0  0CF00400   [8]  FF FF FF B7 06 FF FF FF
  can0  18FEF600   [8]  FF FF 3D 31 FF FF FF FF
  can0  0CF00400   [8]  FF FF FF B7 06 FF FF FF
  can0  0CF00400   [8]  FF FF FF B7 06 FF FF FF
  can0  0CF00300   [8]  FC 00 FF FF FF FF FF FF
  can0  0CF00400   [8]  FF FF FF B7 06 FF FF FF
  can0  18FEF200   [8]  FF FF FF FF FF FF 11 FF
  can0  0CF00400   [8]  FF FF FF F5 06 FF FF FF
  can0  0CF00300   [8]  FC 00 FF FF FF FF FF FF
  can0  0CF00400   [8]  FF FF FF F5 06 FF FF FF
  can0  0CF00400   [8]  FF FF FF F5 06 FF FF FF
  can0  0CF00400   [8]  FF FF FF F5 06 FF FF FF
  can0  0CF00300   [8]  FC 00 FF FF FF FF FF FF
  can0  0CF00400   [8]  FF FF FF F5 06 FF FF FF
  can0  18FEF200   [8]  FF FF FF FF FF FF 11 FF
  can0  0CF00400   [8]  FF FF FF F5 06 FF FF FF
  can0  0CF00300   [8]  FC 00 FF FF FF FF FF FF
  can0  0CF00400   [8]  FF FF FF 15 07 FF FF FF
  can0  0CF00400   [8]  FF FF FF 15 07 FF FF FF
  can0  0CF00400   [8]  FF FF FF 15 07 FF FF FF
  can0  0CF00300   [8]  FC 00 FF FF FF FF FF FF
  can0  0CF00400   [8]  FF FF FF 15 07 FF FF FF
  can0  18FEF200   [8]  FF FF FF FF FF FF 11 FF
  can0  0CF00400   [8]  FF FF FF 15 07 FF FF FF
  can0  0CF00300   [8]  FC 00 FF FF FF FF FF FF
  can0  0CF00400   [8]  FF FF FF 15 07 FF FF FF
  can0  0CF00400   [8]  FF FF FF 15 07 FF FF FF
  can0  0CF00400   [8]  FF FF FF 34 07 FF FF FF
  can0  0CF00300   [8]  FC 00 FF FF FF FF FF FF
  can0  0CF00400   [8]  FF FF FF 34 07 FF FF FF
  can0  18FEF200   [8]  FF FF FF FF FF FF 11 FF
  can0  0CF00400   [8]  FF FF FF 34 07 FF FF FF
  can0  0CF00300   [8]  FC 00 FF FF FF FF FF FF
  can0  0CF00400   [8]  FF FF FF 34 07 FF FF FF
  can0  0CF00400   [8]  FF FF FF 34 07 FF FF FF
  can0  0CF00400   [8]  FF FF FF 4D 08 FF FF FF
  can0  0CF00300   [8]  FC 00 FF FF FF FF FF FF
  can0  0CF00400   [8]  FF FF FF 4D 08 FF FF FF
  can0  18FEF200   [8]  FF FF FF FF FF FF 11 FF
  can0  0CF00400   [8]  FF FF FF E4 23 FF FF FF
  can0  0CF00300   [8]  FC 00 FF FF FF FF FF FF
  can0  0CF00400   [8]  FF FF FF 43 29 FF FF FF
  can0  18FEF600   [8]  FF FF 3D 2F FF FF FF FF
  can0  0CF00400   [8]  FF FF FF DD 39 FF FF FF
  can0  0CF00400   [8]  FF FF FF AD 41 FF FF FF
  can0  0CF00300   [8]  FC 00 FF FF FF FF FF FF
  can0  0CF00400   [8]  FF FF FF 3D 44 FF FF FF
  can0  18FEF200   [8]  FF FF FF FF FF FF 11 FF
  can0  0CF00400   [8]  FF FF FF 03 3E FF FF FF
  can0  0CF00300   [8]  FC 00 FF FF FF FF FF FF
  can0  0CF00400   [8]  FF FF FF 02 39 FF FF FF
  can0  0CF00400   [8]  FF FF FF 64 33 FF FF FF
  can0  0CF00400   [8]  FF FF FF 5D 2F FF FF FF
  can0  0CF00300   [8]  FC 00 FF FF FF FF FF FF
  can0  0CF00400   [8]  FF FF FF 4B 32 FF FF FF
  can0  18FEF200   [8]  FF FF FF FF FF FF 11 FF
  can0  0CF00400   [8]  FF FF FF 90 31 FF FF FF
  can0  0CF00300   [8]  FC 00 FF FF FF FF FF FF
  can0  0CF00400   [8]  FF FF FF D4 30 FF FF FF
  can0  0CF00400   [8]  FF FF FF 8A 32 FF FF FF
  can0  18FEEE00   [8]  3E FF FF FF FF FF FF FF
  can0  0CF00400   [8]  FF FF FF 05 2E FF FF FF
  can0  0CF00300   [8]  FC 00 FF FF FF FF FF FF
  can0  0CF00400   [8]  FF FF FF D3 2B FF FF FF
  can0  18FEF200   [8]  FF FF FF FF FF FF 11 FF
  can0  0CF00400   [8]  FF FF FF E5 28 FF FF FF
  can0  0CF00300   [8]  FC 00 FF FF FF FF FF FF
  can0  0CF00400   [8]  FF FF FF D9 2A FF FF FF
  can0  18FEF700   [8]  FF FF FF FF F1 00 FF FF
  can0  0CF00400   [8]  FF FF FF C7 2D FF FF FF
  can0  18FEF500   [8]  CB FF FF FF FF FF FF FF
  can0  0CF00400   [8]  FF FF FF 17 2B FF FF FF
  can0  0CF00300   [8]  FC 00 FF FF FF FF FF FF
  can0  0CF00400   [8]  FF FF FF CD 2C FF FF FF
  can0  18FEF200   [8]  FF FF FF FF FF FF 11 FF
  can0  0CF00400   [8]  FF FF FF 43 29 FF FF FF
  can0  0CF00300   [8]  FC 00 FF FF FF FF FF FF
  can0  0CF00400   [8]  FF FF FF 43 29 FF FF FF
  can0  18FECA00   [8]  00 FF 00 00 00 00 FF FF
  can0  0CF00400   [8]  FF FF FF B4 2B FF FF FF
  can0  0CF00400   [8]  FF FF FF 3D 2A FF FF FF
  can0  0CF00300   [8]  FC 00 FF FF FF FF FF FF
  can0  0CF00400   [8]  FF FF FF AE 2C FF FF FF
  can0  18FEF200   [8]  FF FF FF FF FF FF 11 FF
  can0  0CF00400   [8]  FF FF FF 25 2E FF FF FF
  can0  0CF00300   [8]  FC 00 FF FF FF FF FF FF
  can0  0CF00400   [8]  FF FF FF 6F 2C FF FF FF
  can0  18FEF600   [8]  FF FF 3D 1B FF FF FF FF
  can0  0CF00400   [8]  FF FF FF 4A 2D FF FF FF
  can0  0CF00400   [8]  FF FF FF B4 2B FF FF FF
  can0  0CF00300   [8]  FC 00 FF FF FF FF FF FF
  can0  0CF00400   [8]  FF FF FF 88 2D FF FF FF
  can0  18FEF200   [8]  FF FF FF FF FF FF 11 FF
  can0  0CF00400   [8]  FF FF FF 05 2E FF FF FF
  can0  0CF00300   [8]  FC 00 FF FF FF FF FF FF
  can0  0CF00400   [8]  FF FF FF 82 2E FF FF FF
  can0  0CF00400   [8]  FF FF FF 9C 2F FF FF FF
  can0  0CF00400   [8]  FF FF FF C7 2D FF FF FF
  can0  0CF00300   [8]  FC 00 FF FF FF FF FF FF
  can0  0CF00400   [8]  FF FF FF C7 2D FF FF FF
  can0  18FEF200   [8]  FF FF FF FF FF FF 11 FF
  can0  0CF00400   [8]  FF FF FF 56 2B FF FF FF
  can0  0CF00300   [8]  FC 00 FF FF FF FF FF FF
  can0  0CF00400   [8]  FF FF FF 8E 2C FF FF FF
  can0  0CF00400   [8]  FF FF FF F2 2B FF FF FF
  can0  0CF00400   [8]  FF FF FF A8 2D FF FF FF
  can0  0CF00300   [8]  FC 00 FF FF FF FF FF FF
  can0  0CF00400   [8]  FF FF FF 69 2D FF FF FF
  can0  18FEF200   [8]  FF FF FF FF FF FF 11 FF
  can0  0CF00400   [8]  FF FF FF AE 2C FF FF FF
  can0  0CF00300   [8]  FC 00 FF FF FF FF FF FF
  can0  0CF00400   [8]  FF FF FF 0B 2D FF FF FF
  can0  0CF00400   [8]  FF FF FF 50 2C FF FF FF
  can0  0CF00400   [8]  FF FF FF A8 2D FF FF FF
  can0  0CF00300   [8]  FC 00 FF FF FF FF FF FF
  can0  0CF00400   [8]  FF FF FF A8 2D FF FF FF
  can0  18FEF200   [8]  FF FF FF FF FF FF 11 FF
  can0  0CF00400   [8]  FF FF FF C7 2D FF FF FF
  can0  0CF00300   [8]  FC 00 FF FF FF FF FF FF
  can0  0CF00400   [8]  FF FF FF 63 2E FF FF FF
  can0  0CF00400   [8]  FF FF FF 63 2E FF FF FF
  can0  0CF00400   [8]  FF FF FF 4A 2D FF FF FF
  can0  0CF00300   [8]  FC 00 FF FF FF FF FF FF
  can0  0CF00400   [8]  FF FF FF 44 2E FF FF FF
  can0  18FEF200   [8]  FF FF FF FF FF FF 11 FF
  can0  0CF00400   [8]  FF FF FF 25 2E FF FF FF
  can0  0CF00300   [8]  FC 00 FF FF FF FF FF FF
  can0  0CF00400   [8]  FF FF FF E0 2E FF FF FF
  can0  18FEF600   [8]  FF FF 3D 1A FF FF FF FF
  can0  0CF00400   [8]  FF FF FF C7 2D FF FF FF
  can0  0CF00400   [8]  FF FF FF AE 2C FF FF FF
  can0  0CF00300   [8]  FC 00 FF FF FF FF FF FF
  can0  0CF00400   [8]  FF FF FF 31 2C FF FF FF
  can0  18FEF200   [8]  FF FF FF FF FF FF 11 FF
  can0  0CF00400   [8]  FF FF FF 11 2C FF FF FF
  can0  0CF00300   [8]  FC 00 FF FF FF FF FF FF
  can0  0CF00400   [8]  FF FF FF EC 2C FF FF FF
  can0  0CF00400   [8]  FF FF FF 88 2D FF FF FF
  can0  0CF00400   [8]  FF FF FF A8 2D FF FF FF
  can0  0CF00300   [8]  FC 00 FF FF FF FF FF FF
  can0  0CF00400   [8]  FF FF FF EC 2C FF FF FF
  can0  18FEF200   [8]  FF FF FF FF FF FF 11 FF
  can0  0CF00400   [8]  FF FF FF BA 2A FF FF FF
  can0  0CF00300   [8]  FC 00 FF FF FF FF FF FF
  can0  0CF00400   [8]  FF FF FF 81 29 FF FF FF
  can0  0CF00400   [8]  FF FF FF FE 29 FF FF FF
  can0  18FEEE00   [8]  3E FF FF FF FF FF FF FF
  can0  0CF00400   [8]  FF FF FF 31 2C FF FF FF
  can0  0CF00300   [8]  FC 00 FF FF FF FF FF FF
  can0  0CF00400   [8]  FF FF FF AE 2C FF FF FF
  can0  18FEF200   [8]  FF FF FF FF FF FF 11 FF
  can0  0CF00400   [8]  FF FF FF 44 2E FF FF FF
  can0  0CF00300   [8]  FC 00 FF FF FF FF FF FF
  can0  0CF00400   [8]  FF FF FF 1F 2F FF FF FF
  can0  18FEF700   [8]  FF FF FF FF 00 01 FF FF
  can0  0CF00400   [8]  FF FF FF 82 2E FF FF FF
  can0  18FEF500   [8]  CB FF FF FF FF FF FF FF
  can0  0CF00400   [8]  FF FF FF 4A 2D FF FF FF
  can0  0CF00300   [8]  FC 00 FF FF FF FF FF FF
  can0  0CF00400   [8]  FF FF FF 31 2C FF FF FF
  can0  18FEF200   [8]  FF FF FF FF FF FF 11 FF
  can0  0CF00400   [8]  FF FF FF 31 2C FF FF FF
  can0  0CF00300   [8]  FC 00 FF FF FF FF FF FF
  can0  0CF00400   [8]  FF FF FF 3D 2A FF FF FF
  can0  18FECA00   [8]  00 FF 00 00 00 00 FF FF
  can0  0CF00400   [8]  FF FF FF 6F 2C FF FF FF
  can0  0CF00400   [8]  FF FF FF AE 2C FF FF FF
  can0  0CF00300   [8]  FC 00 FF FF FF FF FF FF
  can0  0CF00400   [8]  FF FF FF E6 2D FF FF FF
  can0  18FEF200   [8]  FF FF FF FF FF FF 11 FF
  can0  0CF00400   [8]  FF FF FF C7 2D FF FF FF
  can0  0CF00300   [8]  FC 00 FF FF FF FF FF FF
  can0  0CF00400   [8]  FF FF FF E6 2D FF FF FF
  can0  18FEF600   [8]  FF FF 3D 1A FF FF FF FF
  can0  0CF00400   [8]  FF FF FF 05 2E FF FF FF
  can0  0CF00400   [8]  FF FF FF 31 2C FF FF FF
  can0  0CF00300   [8]  FC 00 FF FF FF FF FF FF
  can0  0CF00400   [8]  FF FF FF B4 2B FF FF FF
  can0  18FEF200   [8]  FF FF FF FF FF FF 11 FF
  can0  0CF00400   [8]  FF FF FF 94 2B FF FF FF
  can0  0CF00300   [8]  FC 00 FF FF FF FF FF FF
  can0  0CF00400   [8]  FF FF FF 50 2C FF FF FF
  can0  0CF00400   [8]  FF FF FF 4A 2D FF FF FF
  can0  0CF00400   [8]  FF FF FF 69 2D FF FF FF
  can0  0CF00300   [8]  FC 00 FF FF FF FF FF FF
  can0  0CF00400   [8]  FF FF FF 69 2D FF FF FF
  can0  18FEF200   [8]  FF FF FF FF FF FF 11 FF
  can0  0CF00400   [8]  FF FF FF AE 2C FF FF FF
  can0  0CF00300   [8]  FC 00 FF FF FF FF FF FF
  can0  0CF00400   [8]  FF FF FF 11 2C FF FF FF
  can0  0CF00400   [8]  FF FF FF 94 2B FF FF FF
  can0  0CF00400   [8]  FF FF FF 94 2B FF FF FF
  can0  0CF00300   [8]  FC 00 FF FF FF FF FF FF
  can0  0CF00400   [8]  FF FF FF F8 2A FF FF FF
  can0  18FEF200   [8]  FF FF FF FF FF FF 11 FF
  can0  0CF00400   [8]  FF FF FF F8 2A FF FF FF
  can0  0CF00300   [8]  FC 00 FF FF FF FF FF FF
  can0  0CF00400   [8]  FF FF FF 56 2B FF FF FF
  can0  0CF00400   [8]  FF FF FF D3 2B FF FF FF
  can0  0CF00400   [8]  FF FF FF 6F 2C FF FF FF
  can0  0CF00300   [8]  FC 00 FF FF FF FF FF FF
  can0  0CF00400   [8]  FF FF FF D3 2B FF FF FF
  can0  18FEF200   [8]  FF FF FF FF FF FF 11 FF
  can0  0CF00400   [8]  FF FF FF 50 2C FF FF FF
  can0  0CF00300   [8]  FC 00 FF FF FF FF FF FF
  can0  0CF00400   [8]  FF FF FF CD 2C FF FF FF
  can0  0CF00400   [8]  FF FF FF 50 2C FF FF FF
  can0  0CF00400   [8]  FF FF FF 94 2B FF FF FF
  can0  0CF00300   [8]  FC 00 FF FF FF FF FF FF
  can0  0CF00400   [8]  FF FF FF 56 2B FF FF FF
  can0  18FEF200   [8]  FF FF FF FF FF FF 11 FF
  can0  0CF00400   [8]  FF FF FF AE 2C FF FF FF
  can0  0CF00300   [8]  FC 00 FF FF FF FF FF FF
  can0  0CF00400   [8]  FF FF FF CD 2C FF FF FF
  can0  18FEF600   [8]  FF FF 3D 1A FF FF FF FF
  can0  0CF00400   [8]  FF FF FF F2 2B FF FF FF
  can0  0CF00400   [8]  FF FF FF 31 2C FF FF FF
  can0  0CF00300   [8]  FC 00 FF FF FF FF FF FF
  can0  0CF00400   [8]  FF FF FF 31 2C FF FF FF
  can0  18FEF200   [8]  FF FF FF FF FF FF 11 FF
  can0  0CF00400   [8]  FF FF FF D3 2B FF FF FF
  can0  0CF00300   [8]  FC 00 FF FF FF FF FF FF
  can0  0CF00400   [8]  FF FF FF EC 2C FF FF FF
  can0  0CF00400   [8]  FF FF FF 69 2D FF FF FF
  can0  0CF00400   [8]  FF FF FF 69 2D FF FF FF
  can0  0CF00300   [8]  FC 00 FF FF FF FF FF FF
  can0  0CF00400   [8]  FF FF FF 6F 2C FF FF FF
  can0  18FEF200   [8]  FF FF FF FF FF FF 11 FF
  can0  0CF00400   [8]  FF FF FF AE 2C FF FF FF
  can0  0CF00300   [8]  FC 00 FF FF FF FF FF FF
  can0  0CF00400   [8]  FF FF FF AE 2C FF FF FF
  can0  0CF00400   [8]  FF FF FF 50 2C FF FF FF
  can0  18FEEE00   [8]  3E FF FF FF FF FF FF FF
  can0  0CF00400   [8]  FF FF FF CD 2C FF FF FF
  can0  0CF00300   [8]  FC 00 FF FF FF FF FF FF
  can0  0CF00400   [8]  FF FF FF 31 2C FF FF FF
  can0  18FEF200   [8]  FF FF FF FF FF FF 11 FF
  can0  0CF00400   [8]  FF FF FF D3 2B FF FF FF
  can0  0CF00300   [8]  FC 00 FF FF FF FF FF FF
  can0  0CF00400   [8]  FF FF FF 75 2B FF FF FF
  can0  18FEF700   [8]  FF FF FF FF 03 01 FF FF
  can0  0CF00400   [8]  FF FF FF 75 2B FF FF FF
  can0  18FEF500   [8]  CB FF FF FF FF FF FF FF
  can0  0CF00400   [8]  FF FF FF 11 2C FF FF FF
  can0  0CF00300   [8]  FC 00 FF FF FF FF FF FF
  can0  0CF00400   [8]  FF FF FF 11 2C FF FF FF
  can0  18FEF200   [8]  FF FF FF FF FF FF 11 FF
  can0  0CF00400   [8]  FF FF FF 6F 2C FF FF FF
  can0  0CF00300   [8]  FC 00 FF FF FF FF FF FF
  can0  0CF00400   [8]  FF FF FF 75 2B FF FF FF
  can0  18FECA00   [8]  00 FF 00 00 00 00 FF FF
  can0  0CF00400   [8]  FF FF FF 6F 2C FF FF FF
  can0  0CF00400   [8]  FF FF FF 56 2B FF FF FF
  can0  0CF00300   [8]  FC 00 FF FF FF FF FF FF
  can0  0CF00400   [8]  FF FF FF 56 2B FF FF FF
  can0  18FEF200   [8]  FF FF FF FF FF FF 11 FF
  can0  0CF00400   [8]  FF FF FF F2 2B FF FF FF
  can0  0CF00300   [8]  FC 00 FF FF FF FF FF FF
  can0  0CF00400   [8]  FF FF FF 6F 2C FF FF FF
  can0  18FEF600   [8]  FF FF 3D 1A FF FF FF FF
  can0  0CF00400   [8]  FF FF FF AE 2C FF FF FF
  can0  0CF00400   [8]  FF FF FF F2 2B FF FF FF
  can0  0CF00300   [8]  FC 00 FF FF FF FF FF FF
  can0  0CF00400   [8]  FF FF FF F8 2A FF FF FF
  can0  18FEF200   [8]  FF FF FF FF FF FF 11 FF
  can0  0CF00400   [8]  FF FF FF F8 2A FF FF FF
  can0  0CF00300   [8]  FC 00 FF FF FF FF FF FF
  can0  0CF00400   [8]  FF FF FF D3 2B FF FF FF
  can0  0CF00400   [8]  FF FF FF D9 2A FF FF FF
  can0  0CF00400   [8]  FF FF FF D3 2B FF FF FF
  can0  0CF00300   [8]  FC 00 FF FF FF FF FF FF
  can0  0CF00400   [8]  FF FF FF 11 2C FF FF FF
  can0  18FEF200   [8]  FF FF FF FF FF FF 11 FF
  can0  0CF00400   [8]  FF FF FF 31 2C FF FF FF
  can0  0CF00300   [8]  FC 00 FF FF FF FF FF FF
  can0  0CF00400   [8]  FF FF FF EC 2C FF FF FF
  can0  0CF00400   [8]  FF FF FF 8E 2C FF FF FF
  can0  0CF00400   [8]  FF FF FF 6F 2C FF FF FF
  can0  0CF00300   [8]  FC 00 FF FF FF FF FF FF
  can0  0CF00400   [8]  FF FF FF F2 2B FF FF FF
  can0  18FEF200   [8]  FF FF FF FF FF FF 11 FF
  can0  0CF00400   [8]  FF FF FF B4 2B FF FF FF
  can0  0CF00300   [8]  FC 00 FF FF FF FF FF FF
  can0  0CF00400   [8]  FF FF FF B4 2B FF FF FF
  can0  0CF00400   [8]  FF FF FF AE 2C FF FF FF
  can0  0CF00400   [8]  FF FF FF 0B 2D FF FF FF
  can0  0CF00300   [8]  FC 00 FF FF FF FF FF FF
  can0  0CF00400   [8]  FF FF FF 4A 2D FF FF FF
  can0  18FEF200   [8]  FF FF FF FF FF FF 11 FF
  can0  0CF00400   [8]  FF FF FF 6F 2C FF FF FF
  can0  0CF00300   [8]  FC 00 FF FF FF FF FF FF
  can0  0CF00400   [8]  FF FF FF F2 2B FF FF FF
  can0  0CF00400   [8]  FF FF FF F2 2B FF FF FF
  can0  0CF00400   [8]  FF FF FF 6F 2C FF FF FF
  can0  0CF00300   [8]  FC 00 FF FF FF FF FF FF
  can0  0CF00400   [8]  FF FF FF AE 2C FF FF FF
  can0  18FEF200   [8]  FF FF FF FF FF FF 11 FF
  can0  0CF00400   [8]  FF FF FF 6F 2C FF FF FF
  can0  0CF00300   [8]  FC 00 FF FF FF FF FF FF
  can0  0CF00400   [8]  FF FF FF B4 2B FF FF FF
  can0  18FEF600   [8]  FF FF 3D 1A FF FF FF FF
  can0  0CF00400   [8]  FF FF FF 94 2B FF FF FF
  can0  0CF00400   [8]  FF FF FF 75 2B FF FF FF
  can0  0CF00300   [8]  FC 00 FF FF FF FF FF FF
  can0  0CF00400   [8]  FF FF FF 50 2C FF FF FF
  can0  18FEF200   [8]  FF FF FF FF FF FF 11 FF
  can0  0CF00400   [8]  FF FF FF 75 2B FF FF FF
  can0  0CF00300   [8]  FC 00 FF FF FF FF FF FF
  can0  0CF00400   [8]  FF FF FF 75 2B FF FF FF
  can0  0CF00400   [8]  FF FF FF 75 2B FF FF FF
  can0  0CF00400   [8]  FF FF FF 5C 2A FF FF FF
  can0  0CF00300   [8]  FC 00 FF FF FF FF FF FF
  can0  0CF00400   [8]  FF FF FF B4 2B FF FF FF
  can0  18FEF200   [8]  FF FF FF FF FF FF 10 FF
  can0  0CF00400   [8]  FF FF FF B4 2B FF FF FF
  can0  0CF00300   [8]  FC 00 FF FF FF FF FF FF
  can0  0CF00400   [8]  FF FF FF EC 2C FF FF FF
  can0  0CF00400   [8]  FF FF FF 0B 2D FF FF FF
  can0  18FEEE00   [8]  3E FF FF FF FF FF FF FF
  can0  0CF00400   [8]  FF FF FF 75 2B FF FF FF
  can0  0CF00300   [8]  FC 00 FF FF FF FF FF FF
  can0  0CF00400   [8]  FF FF FF 6F 2C FF FF FF
  can0  18FEF200   [8]  FF FF FF FF FF FF 11 FF
  can0  0CF00400   [8]  FF FF FF 50 2C FF FF FF
  can0  0CF00300   [8]  FC 00 FF FF FF FF FF FF
  can0  0CF00400   [8]  FF FF FF B4 2B FF FF FF
  can0  18FEF700   [8]  FF FF FF FF 03 01 FF FF
  can0  0CF00400   [8]  FF FF FF 8E 2C FF FF FF
  can0  18FEF500   [8]  CB FF FF FF FF FF FF FF
  can0  0CF00400   [8]  FF FF FF CD 2C FF FF FF
  can0  0CF00300   [8]  FC 00 FF FF FF FF FF FF
  can0  0CF00400   [8]  FF FF FF 63 2E FF FF FF
  can0  18FEF200   [8]  FF FF FF FF FF FF 10 FF
  can0  0CF00400   [8]  FF FF FF 05 2E FF FF FF
  can0  0CF00300   [8]  FC 00 FF FF FF FF FF FF
  can0  0CF00400   [8]  FF FF FF 88 2D FF FF FF
  can0  18FECA00   [8]  00 FF 00 00 00 00 FF FF
  can0  0CF00400   [8]  FF FF FF 8E 2C FF FF FF
  can0  0CF00400   [8]  FF FF FF CD 2C FF FF FF
  can0  0CF00300   [8]  FC 00 FF FF FF FF FF FF
  can0  0CF00400   [8]  FF FF FF 8E 2C FF FF FF
  can0  18FEF200   [8]  FF FF FF FF FF FF 10 FF
  can0  0CF00400   [8]  FF FF FF 69 2D FF FF FF
  can0  0CF00300   [8]  FC 00 FF FF FF FF FF FF
  can0  0CF00400   [8]  FF FF FF 37 2B FF FF FF
  can0  18FEF600   [8]  FF FF 3D 1A FF FF FF FF
  can0  0CF00400   [8]  FF FF FF 37 2B FF FF FF
  can0  0CF00400   [8]  FF FF FF BA 2A FF FF FF
  can0  0CF00300   [8]  FC 00 FF FF FF FF FF FF
  can0  0CF00400   [8]  FF FF FF 56 2B FF FF FF
  can0  18FEF200   [8]  FF FF FF FF FF FF 10 FF
  can0  0CF00400   [8]  FF FF FF 11 2C FF FF FF
  can0  0CF00300   [8]  FC 00 FF FF FF FF FF FF
  can0  0CF00400   [8]  FF FF FF AE 2C FF FF FF
  can0  0CF00400   [8]  FF FF FF 2B 2D FF FF FF
  can0  0CF00400   [8]  FF FF FF 11 2C FF FF FF
  can0  0CF00300   [8]  FC 00 FF FF FF FF FF FF
  can0  0CF00400   [8]  FF FF FF 56 2B FF FF FF
  can0  18FEF200   [8]  FF FF FF FF FF FF 10 FF
  can0  0CF00400   [8]  FF FF FF 94 2B FF FF FF
  can0  0CF00300   [8]  FC 00 FF FF FF FF FF FF
  can0  0CF00400   [8]  FF FF FF D9 2A FF FF FF
  can0  0CF00400   [8]  FF FF FF 11 2C FF FF FF
  can0  0CF00400   [8]  FF FF FF 37 2B FF FF FF
  can0  0CF00300   [8]  FC 00 FF FF FF FF FF FF
  can0  0CF00400   [8]  FF FF FF 56 2B FF FF FF
  can0  18FEF200   [8]  FF FF FF FF FF FF 10 FF
  can0  0CF00400   [8]  FF FF FF 31 2C FF FF FF
  can0  0CF00300   [8]  FC 00 FF FF FF FF FF FF
  can0  0CF00400   [8]  FF FF FF 11 2C FF FF FF
  can0  0CF00400   [8]  FF FF FF 50 2C FF FF FF
  can0  0CF00400   [8]  FF FF FF 50 2C FF FF FF
  can0  0CF00300   [8]  FC 00 FF FF FF FF FF FF
  can0  0CF00400   [8]  FF FF FF AE 2C FF FF FF
  can0  18FEF200   [8]  FF FF FF FF FF FF 10 FF
  can0  0CF00400   [8]  FF FF FF CD 2C FF FF FF
  can0  0CF00300   [8]  FC 00 FF FF FF FF FF FF
  can0  0CF00400   [8]  FF FF FF 31 2C FF FF FF
  can0  0CF00400   [8]  FF FF FF CD 2C FF FF FF
  can0  0CF00400   [8]  FF FF FF 50 2C FF FF FF
  can0  0CF00300   [8]  FC 00 FF FF FF FF FF FF
  can0  0CF00400   [8]  FF FF FF 11 2C FF FF FF
  can0  18FEF200   [8]  FF FF FF FF FF FF 10 FF
  can0  0CF00400   [8]  FF FF FF F8 2A FF FF FF
  can0  0CF00300   [8]  FC 00 FF FF FF FF FF FF
  can0  0CF00400   [8]  FF FF FF 75 2B FF FF FF
  can0  18FEF600   [8]  FF FF 3D 1A FF FF FF FF
  can0  0CF00400   [8]  FF FF FF F2 2B FF FF FF
  can0  0CF00400   [8]  FF FF FF 94 2B FF FF FF
  can0  0CF00300   [8]  FC 00 FF FF FF FF FF FF
  can0  0CF00400   [8]  FF FF FF F2 2B FF FF FF
  can0  18FEF200   [8]  FF FF FF FF FF FF 10 FF
  can0  0CF00400   [8]  FF FF FF F2 2B FF FF FF
  can0  0CF00300   [8]  FC 00 FF FF FF FF FF FF
  can0  0CF00400   [8]  FF FF FF 75 2B FF FF FF
  can0  0CF00400   [8]  FF FF FF 17 2B FF FF FF
  can0  0CF00400   [8]  FF FF FF 17 2B FF FF FF
  can0  0CF00300   [8]  FC 00 FF FF FF FF FF FF
  can0  0CF00400   [8]  FF FF FF 37 2B FF FF FF
  can0  18FEF200   [8]  FF FF FF FF FF FF 10 FF
  can0  0CF00400   [8]  FF FF FF D9 2A FF FF FF
  can0  0CF00300   [8]  FC 00 FF FF FF FF FF FF
  can0  0CF00400   [8]  FF FF FF BA 2A FF FF FF
  can0  0CF00400   [8]  FF FF FF F8 2A FF FF FF
  can0  18FEEE00   [8]  3E FF FF FF FF FF FF FF
  can0  0CF00400   [8]  FF FF FF D9 2A FF FF FF
  can0  0CF00300   [8]  FC 00 FF FF FF FF FF FF
  can0  0CF00400   [8]  FF FF FF B4 2B FF FF FF
  can0  18FEF200   [8]  FF FF FF FF FF FF 10 FF
  can0  0CF00400   [8]  FF FF FF F2 2B FF FF FF
  can0  0CF00300   [8]  FC 00 FF FF FF FF FF FF
  can0  0CF00400   [8]  FF FF FF 6F 2C FF FF FF
  can0  18FEF700   [8]  FF FF FF FF 04 01 FF FF
  can0  0CF00400   [8]  FF FF FF F8 2A FF FF FF
  can0  18FEF500   [8]  CB FF FF FF FF FF FF FF
  can0  0CF00400   [8]  FF FF FF 7B 2A FF FF FF
  can0  0CF00300   [8]  FC 00 FF FF FF FF FF FF
  can0  0CF00400   [8]  FF FF FF C0 29 FF FF FF
  can0  18FEF200   [8]  FF FF FF FF FF FF 10 FF
  can0  0CF00400   [8]  FF FF FF D3 2B FF FF FF
  can0  0CF00300   [8]  FC 00 FF FF FF FF FF FF
  can0  0CF00400   [8]  FF FF FF D3 2B FF FF FF
  can0  18FECA00   [8]  00 FF 00 00 00 00 FF FF
  can0  0CF00400   [8]  FF FF FF EC 2C FF FF FF
  can0  0CF00400   [8]  FF FF FF 4A 2D FF FF FF
  can0  0CF00300   [8]  FC 00 FF FF FF FF FF FF
  can0  0CF00400   [8]  FF FF FF A8 2D FF FF FF
  can0  18FEF200   [8]  FF FF FF FF FF FF 10 FF
  can0  0CF00400   [8]  FF FF FF 0B 2D FF FF FF
  can0  0CF00300   [8]  FC 00 FF FF FF FF FF FF
  can0  0CF00400   [8]  FF FF FF 94 2B FF FF FF
  can0  18FEF600   [8]  FF FF 3D 1A FF FF FF FF
  can0  0CF00400   [8]  FF FF FF 37 2B FF FF FF
  can0  0CF00400   [8]  FF FF FF 3D 2A FF FF FF
  can0  0CF00300   [8]  FC 00 FF FF FF FF FF FF
  can0  0CF00400   [8]  FF FF FF B4 2B FF FF FF
  can0  18FEF200   [8]  FF FF FF FF FF FF 10 FF
  can0  0CF00400   [8]  FF FF FF BA 2A FF FF FF
  can0  0CF00300   [8]  FC 00 FF FF FF FF FF FF
  can0  0CF00400   [8]  FF FF FF 50 2C FF FF FF
  can0  0CF00400   [8]  FF FF FF 11 2C FF FF FF
  can0  0CF00400   [8]  FF FF FF 69 2D FF FF FF
  can0  0CF00300   [8]  FC 00 FF FF FF FF FF FF
  can0  0CF00400   [8]  FF FF FF AE 2C FF FF FF
  can0  18FEF200   [8]  FF FF FF FF FF FF 10 FF
  can0  0CF00400   [8]  FF FF FF 81 29 FF FF FF
  can0  0CF00300   [8]  FC 00 FF FF FF FF FF FF
  can0  0CF00400   [8]  FF FF FF 81 29 FF FF FF
  can0  0CF00400   [8]  FF FF FF 23 29 FF FF FF
  can0  0CF00400   [8]  FF FF FF 04 29 FF FF FF
  can0  0CF00300   [8]  FC 00 FF FF FF FF FF FF
  can0  0CF00400   [8]  FF FF FF 5C 2A FF FF FF
  can0  18FEF200   [8]  FF FF FF FF FF FF 10 FF
  can0  0CF00400   [8]  FF FF FF D3 2B FF FF FF
  can0  0CF00300   [8]  FC 00 FF FF FF FF FF FF
  can0  0CF00400   [8]  FF FF FF F2 2B FF FF FF
  can0  0CF00400   [8]  FF FF FF AE 2C FF FF FF
  can0  0CF00400   [8]  FF FF FF F2 2B FF FF FF
  can0  0CF00300   [8]  FC 00 FF FF FF FF FF FF
  can0  0CF00400   [8]  FF FF FF 94 2B FF FF FF
  can0  18FEF200   [8]  FF FF FF FF FF FF 10 FF
  can0  0CF00400   [8]  FF FF FF 94 2B FF FF FF
  can0  0CF00300   [8]  FC 00 FF FF FF FF FF FF
  can0  0CF00400   [8]  FF FF FF 50 2C FF FF FF
  can0  0CF00400   [8]  FF FF FF F2 2B FF FF FF
  can0  0CF00400   [8]  FF FF FF 37 2B FF FF FF
  can0  0CF00300   [8]  FC 00 FF FF FF FF FF FF
  can0  0CF00400   [8]  FF FF FF D9 2A FF FF FF
  can0  18FEF200   [8]  FF FF FF FF FF FF 10 FF
  can0  0CF00400   [8]  FF FF FF D9 2A FF FF FF
  can0  0CF00300   [8]  FC 00 FF FF FF FF FF FF
  can0  0CF00400   [8]  FF FF FF 9A 2A FF FF FF
  can0  18FEF600   [8]  FF FF 3D 1A FF FF FF FF
  can0  0CF00400   [8]  FF FF FF FE 29 FF FF FF
  can0  0CF00400   [8]  FF FF FF 5C 2A FF FF FF
  can0  0CF00300   [8]  FC 00 FF FF FF FF FF FF
  can0  0CF00400   [8]  FF FF FF 43 29 FF FF FF
  can0  18FEF200   [8]  FF FF FF FF FF FF 10 FF
  can0  0CF00400   [8]  FF FF FF 17 2B FF FF FF
  can0  0CF00300   [8]  FC 00 FF FF FF FF FF FF
  can0  0CF00400   [8]  FF FF FF 37 2B FF FF FF
  can0  0CF00400   [8]  FF FF FF 11 2C FF FF FF
  can0  0CF00400   [8]  FF FF FF 31 2C FF FF FF
  can0  0CF00300   [8]  FC 00 FF FF FF FF FF FF
  can0  0CF00400   [8]  FF FF FF F2 2B FF FF FF
  can0  18FEF200   [8]  FF FF FF FF FF FF 10 FF
  can0  0CF00400   [8]  FF FF FF F2 2B FF FF FF
  can0  0CF00300   [8]  FC 00 FF FF FF FF FF FF
  can0  0CF00400   [8]  FF FF FF 56 2B FF FF FF
  can0  0CF00400   [8]  FF FF FF 56 2B FF FF FF
  can0  18FEEE00   [8]  3E FF FF FF FF FF FF FF
  can0  0CF00400   [8]  FF FF FF D9 2A FF FF FF
  can0  0CF00300   [8]  FC 00 FF FF FF FF FF FF
  can0  0CF00400   [8]  FF FF FF B4 2B FF FF FF
  can0  18FEF200   [8]  FF FF FF FF FF FF 10 FF
  can0  0CF00400   [8]  FF FF FF 56 2B FF FF FF
  can0  0CF00300   [8]  FC 00 FF FF FF FF FF FF
  can0  0CF00400   [8]  FF FF FF D3 2B FF FF FF
  can0  18FEF700   [8]  FF FF FF FF 03 01 FF FF
  can0  0CF00400   [8]  FF FF FF 94 2B FF FF FF
  can0  18FEF500   [8]  CB FF FF FF FF FF FF FF
  can0  0CF00400   [8]  FF FF FF 37 2B FF FF FF
  can0  0CF00300   [8]  FC 00 FF FF FF FF FF FF
  can0  0CF00400   [8]  FF FF FF 1D 2A FF FF FF
  can0  18FEF200   [8]  FF FF FF FF FF FF 10 FF
  can0  0CF00400   [8]  FF FF FF 23 29 FF FF FF
  can0  0CF00300   [8]  FC 00 FF FF FF FF FF FF
  can0  0CF00400   [8]  FF FF FF 23 29 FF FF FF
  can0  18FECA00   [8]  00 FF 00 00 00 00 FF FF
  can0  0CF00400   [8]  FF FF FF 9A 2A FF FF FF
  can0  0CF00400   [8]  FF FF FF 9A 2A FF FF FF
  can0  0CF00300   [8]  FC 00 FF FF FF FF FF FF
  can0  0CF00400   [8]  FF FF FF 9A 2A FF FF FF
  can0  18FEF200   [8]  FF FF FF FF FF FF 10 FF
  can0  0CF00400   [8]  FF FF FF BA 2A FF FF FF
  can0  0CF00300   [8]  FC 00 FF FF FF FF FF FF
  can0  0CF00400   [8]  FF FF FF F2 2B FF FF FF
  can0  18FEF600   [8]  FF FF 3D 1A FF FF FF FF
  can0  0CF00400   [8]  FF FF FF F2 2B FF FF FF
  can0  0CF00400   [8]  FF FF FF F2 2B FF FF FF
  can0  0CF00300   [8]  FC 00 FF FF FF FF FF FF
  can0  0CF00400   [8]  FF FF FF 11 2C FF FF FF
  can0  18FEF200   [8]  FF FF FF FF FF FF 10 FF
  can0  0CF00400   [8]  FF FF FF 75 2B FF FF FF
  can0  0CF00300   [8]  FC 00 FF FF FF FF FF FF
  can0  0CF00400   [8]  FF FF FF 7B 2A FF FF FF
  can0  0CF00400   [8]  FF FF FF DF 29 FF FF FF
  can0  0CF00400   [8]  FF FF FF BA 2A FF FF FF
  can0  0CF00300   [8]  FC 00 FF FF FF FF FF FF
  can0  0CF00400   [8]  FF FF FF D9 2A FF FF FF
  can0  18FEF200   [8]  FF FF FF FF FF FF 10 FF
  can0  0CF00400   [8]  FF FF FF F2 2B FF FF FF
  can0  0CF00300   [8]  FC 00 FF FF FF FF FF FF
  can0  0CF00400   [8]  FF FF FF F2 2B FF FF FF
  can0  0CF00400   [8]  FF FF FF 7B 2A FF FF FF
  can0  0CF00400   [8]  FF FF FF D3 2B FF FF FF
  can0  0CF00300   [8]  FC 00 FF FF FF FF FF FF
  can0  0CF00400   [8]  FF FF FF 1D 2A FF FF FF
  can0  18FEF200   [8]  FF FF FF FF FF FF 10 FF
  can0  0CF00400   [8]  FF FF FF 56 2B FF FF FF
  can0  0CF00300   [8]  FC 00 FF FF FF FF FF FF
  can0  0CF00400   [8]  FF FF FF 5C 2A FF FF FF
  can0  0CF00400   [8]  FF FF FF D9 2A FF FF FF
  can0  0CF00400   [8]  FF FF FF 56 2B FF FF FF
  can0  0CF00300   [8]  FC 00 FF FF FF FF FF FF
  can0  0CF00400   [8]  FF FF FF 94 2B FF FF FF
  can0  18FEF200   [8]  FF FF FF FF FF FF 10 FF
  can0  0CF00400   [8]  FF FF FF F8 2A FF FF FF
  can0  0CF00300   [8]  FC 00 FF FF FF FF FF FF
  can0  0CF00400   [8]  FF FF FF 56 2B FF FF FF
  can0  0CF00400   [8]  FF FF FF 56 2B FF FF FF
  can0  0CF00400   [8]  FF FF FF 31 2C FF FF FF
  can0  0CF00300   [8]  FC 00 FF FF FF FF FF FF
  can0  0CF00400   [8]  FF FF FF 31 2C FF FF FF
  can0  18FEF200   [8]  FF FF FF FF FF FF 10 FF
  can0  0CF00400   [8]  FF FF FF BA 2A FF FF FF
  can0  0CF00300   [8]  FC 00 FF FF FF FF FF FF
  can0  0CF00400   [8]  FF FF FF C6 28 FF FF FF
  can0  18FEF600   [8]  FF FF 3D 1A FF FF FF FF
  can0  0CF00400   [8]  FF FF FF 23 29 FF FF FF
  can0  0CF00400   [8]  FF FF FF 81 29 FF FF FF
  can0  0CF00300   [8]  FC 00 FF FF FF FF FF FF
  can0  0CF00400   [8]  FF FF FF D9 2A FF FF FF
  can0  18FEF200   [8]  FF FF FF FF FF FF 10 FF
  can0  0CF00400   [8]  FF FF FF D9 2A FF FF FF
  can0  0CF00300   [8]  FC 00 FF FF FF FF FF FF
  can0  0CF00400   [8]  FF FF FF BA 2A FF FF FF
  can0  0CF00400   [8]  FF FF FF 7B 2A FF FF FF
  can0  0CF00400   [8]  FF FF FF 7B 2A FF FF FF
  can0  0CF00300   [8]  FC 00 FF FF FF FF FF FF
  can0  0CF00400   [8]  FF FF FF DF 29 FF FF FF
  can0  18FEF200   [8]  FF FF FF FF FF FF 10 FF
  can0  0CF00400   [8]  FF FF FF 3D 2A FF FF FF
  can0  0CF00300   [8]  FC 00 FF FF FF FF FF FF
  can0  0CF00400   [8]  FF FF FF 7B 2A FF FF FF
  can0  0CF00400   [8]  FF FF FF 94 2B FF FF FF
  can0  18FEEE00   [8]  3E FF FF FF FF FF FF FF
  can0  0CF00400   [8]  FF FF FF F8 2A FF FF FF
  can0  0CF00300   [8]  FC 00 FF FF FF FF FF FF
  can0  0CF00400   [8]  FF FF FF 5C 2A FF FF FF
  can0  18FEF200   [8]  FF FF FF FF FF FF 10 FF
  can0  0CF00400   [8]  FF FF FF C0 29 FF FF FF
  can0  0CF00300   [8]  FC 00 FF FF FF FF FF FF
  can0  0CF00400   [8]  FF FF FF D9 2A FF FF FF
  can0  18FEF700   [8]  FF FF FF FF 05 01 FF FF
  can0  0CF00400   [8]  FF FF FF FE 29 FF FF FF
  can0  18FEF500   [8]  CB FF FF FF FF FF FF FF
  can0  0CF00400   [8]  FF FF FF 9A 2A FF FF FF
  can0  0CF00300   [8]  FC 00 FF FF FF FF FF FF
  can0  0CF00400   [8]  FF FF FF 9A 2A FF FF FF
  can0  18FEF200   [8]  FF FF FF FF FF FF 10 FF
  can0  0CF00400   [8]  FF FF FF 7B 2A FF FF FF
  can0  0CF00300   [8]  FC 00 FF FF FF FF FF FF
  can0  0CF00400   [8]  FF FF FF 3D 2A FF FF FF
  can0  18FECA00   [8]  00 FF 00 00 00 00 FF FF
  can0  0CF00400   [8]  FF FF FF 37 2B FF FF FF
  can0  0CF00400   [8]  FF FF FF 75 2B FF FF FF
  can0  0CF00300   [8]  FC 00 FF FF FF FF FF FF
  can0  0CF00400   [8]  FF FF FF 37 2B FF FF FF
  can0  18FEF200   [8]  FF FF FF FF FF FF 10 FF
  can0  0CF00400   [8]  FF FF FF D3 2B FF FF FF
  can0  0CF00300   [8]  FC 00 FF FF FF FF FF FF
  can0  0CF00400   [8]  FF FF FF 37 2B FF FF FF
  can0  18FEF600   [8]  FF FF 3D 1A FF FF FF FF
  can0  0CF00400   [8]  FF FF FF 17 2B FF FF FF
  can0  0CF00400   [8]  FF FF FF D9 2A FF FF FF
  can0  0CF00300   [8]  FC 00 FF FF FF FF FF FF
  can0  0CF00400   [8]  FF FF FF F8 2A FF FF FF
  can0  18FEF200   [8]  FF FF FF FF FF FF 10 FF
  can0  0CF00400   [8]  FF FF FF C0 29 FF FF FF
  can0  0CF00300   [8]  FC 00 FF FF FF FF FF FF
  can0  0CF00400   [8]  FF FF FF C0 29 FF FF FF
  can0  0CF00400   [8]  FF FF FF C0 29 FF FF FF
  can0  0CF00400   [8]  FF FF FF C0 29 FF FF FF
  can0  0CF00300   [8]  FC 00 FF FF FF FF FF FF
  can0  0CF00400   [8]  FF FF FF FE 29 FF FF FF
  can0  18FEF200   [8]  FF FF FF FF FF FF 10 FF
  can0  0CF00400   [8]  FF FF FF A0 29 FF FF FF
  can0  0CF00300   [8]  FC 00 FF FF FF FF FF FF
  can0  0CF00400   [8]  FF FF FF 5C 2A FF FF FF
  can0  0CF00400   [8]  FF FF FF BA 2A FF FF FF
  can0  0CF00400   [8]  FF FF FF 94 2B FF FF FF
  can0  0CF00300   [8]  FC 00 FF FF FF FF FF FF
  can0  0CF00400   [8]  FF FF FF 37 2B FF FF FF
  can0  18FEF200   [8]  FF FF FF FF FF FF 10 FF
  can0  0CF00400   [8]  FF FF FF BA 2A FF FF FF
  can0  0CF00300   [8]  FC 00 FF FF FF FF FF FF
  can0  0CF00400   [8]  FF FF FF BA 2A FF FF FF
  can0  0CF00400   [8]  FF FF FF FE 29 FF FF FF
  can0  0CF00400   [8]  FF FF FF DF 29 FF FF FF
  can0  0CF00300   [8]  FC 00 FF FF FF FF FF FF
  can0  0CF00400   [8]  FF FF FF DF 29 FF FF FF
  can0  18FEF200   [8]  FF FF FF FF FF FF 10 FF
  can0  0CF00400   [8]  FF FF FF A6 28 FF FF FF
  can0  0CF00300   [8]  FC 00 FF FF FF FF FF FF
  can0  0CF00400   [8]  FF FF FF 81 29 FF FF FF
  can0  0CF00400   [8]  FF FF FF F8 2A FF FF FF
  can0  0CF00400   [8]  FF FF FF 75 2B FF FF FF
  can0  0CF00300   [8]  FC 00 FF FF FF FF FF FF
  can0  0CF00400   [8]  FF FF FF 17 2B FF FF FF
  can0  18FEF200   [8]  FF FF FF FF FF FF 10 FF
  can0  0CF00400   [8]  FF FF FF 1D 2A FF FF FF
  can0  0CF00300   [8]  FC 00 FF FF FF FF FF FF
  can0  0CF00400   [8]  FF FF FF 7B 2A FF FF FF
  can0  18FEF600   [8]  FF FF 3D 1A FF FF FF FF
  can0  0CF00400   [8]  FF FF FF 7B 2A FF FF FF
  can0  0CF00400   [8]  FF FF FF C0 29 FF FF FF
  can0  0CF00300   [8]  FC 00 FF FF FF FF FF FF
  can0  0CF00400   [8]  FF FF FF 17 2B FF FF FF
  can0  18FEF200   [8]  FF FF FF FF FF FF 10 FF
  can0  0CF00400   [8]  FF FF FF 56 2B FF FF FF
  can0  0CF00300   [8]  FC 00 FF FF FF FF FF FF
  can0  0CF00400   [8]  FF FF FF 56 2B FF FF FF
  can0  0CF00400   [8]  FF FF FF BA 2A FF FF FF
  can0  0CF00400   [8]  FF FF FF C0 29 FF FF FF
  can0  0CF00300   [8]  FC 00 FF FF FF FF FF FF
  can0  0CF00400   [8]  FF FF FF 81 29 FF FF FF
  can0  18FEF200   [8]  FF FF FF FF FF FF 10 FF
  can0  0CF00400   [8]  FF FF FF C0 29 FF FF FF
  can0  0CF00300   [8]  FC 00 FF FF FF FF FF FF
  can0  0CF00400   [8]  FF FF FF DF 29 FF FF FF
  can0  0CF00400   [8]  FF FF FF DF 29 FF FF FF
  can0  18FEEE00   [8]  3E FF FF FF FF FF FF FF
  can0  0CF00400   [8]  FF FF FF 75 2B FF FF FF
  can0  0CF00300   [8]  FC 00 FF FF FF FF FF FF
  can0  0CF00400   [8]  FF FF FF 17 2B FF FF FF
  can0  18FEF200   [8]  FF FF FF FF FF FF 10 FF
  can0  0CF00400   [8]  FF FF FF 1D 2A FF FF FF
  can0  0CF00300   [8]  FC 00 FF FF FF FF FF FF
  can0  0CF00400   [8]  FF FF FF A6 28 FF FF FF
  can0  18FEF700   [8]  FF FF FF FF 05 01 FF FF
  can0  0CF00400   [8]  FF FF FF EB 27 FF FF FF
  can0  18FEF500   [8]  CB FF FF FF FF FF FF FF
  can0  0CF00400   [8]  FF FF FF 04 29 FF FF FF
  can0  0CF00300   [8]  FC 00 FF FF FF FF FF FF
  can0  0CF00400   [8]  FF FF FF FE 29 FF FF FF
  can0  18FEF200   [8]  FF FF FF FF FF FF 10 FF
  can0  0CF00400   [8]  FF FF FF FE 29 FF FF FF
  can0  0CF00300   [8]  FC 00 FF FF FF FF FF FF
  can0  0CF00400   [8]  FF FF FF FE 29 FF FF FF
  can0  18FECA00   [8]  00 FF 00 00 00 00 FF FF
  can0  0CF00400   [8]  FF FF FF 37 2B FF FF FF
  can0  0CF00400   [8]  FF FF FF 9A 2A FF FF FF
  can0  0CF00300   [8]  FC 00 FF FF FF FF FF FF
  can0  0CF00400   [8]  FF FF FF BA 2A FF FF FF
  can0  18FEF200   [8]  FF FF FF FF FF FF 10 FF
  can0  0CF00400   [8]  FF FF FF C0 29 FF FF FF
  can0  0CF00300   [8]  FC 00 FF FF FF FF FF FF
  can0  0CF00400   [8]  FF FF FF 87 28 FF FF FF
  can0  18FEF600   [8]  FF FF 3D 1A FF FF FF FF
  can0  0CF00400   [8]  FF FF FF 43 29 FF FF FF
  can0  0CF00400   [8]  FF FF FF 23 29 FF FF FF
  can0  0CF00300   [8]  FC 00 FF FF FF FF FF FF
  can0  0CF00400   [8]  FF FF FF FE 29 FF FF FF
  can0  18FEF200   [8]  FF FF FF FF FF FF 10 FF
  can0  0CF00400   [8]  FF FF FF FE 29 FF FF FF
  can0  0CF00300   [8]  FC 00 FF FF FF FF FF FF
  can0  0CF00400   [8]  FF FF FF 62 29 FF FF FF
  can0  0CF00400   [8]  FF FF FF BA 2A FF FF FF
  can0  0CF00400   [8]  FF FF FF D9 2A FF FF FF
  can0  0CF00300   [8]  FC 00 FF FF FF FF FF FF
  can0  0CF00400   [8]  FF FF FF 5C 2A FF FF FF
  can0  18FEF200   [8]  FF FF FF FF FF FF 10 FF
  can0  0CF00400   [8]  FF FF FF FE 29 FF FF FF
  can0  0CF00300   [8]  FC 00 FF FF FF FF FF FF
  can0  0CF00400   [8]  FF FF FF C0 29 FF FF FF
  can0  0CF00400   [8]  FF FF FF 7B 2A FF FF FF
  can0  0CF00400   [8]  FF FF FF D9 2A FF FF FF
  can0  0CF00300   [8]  FC 00 FF FF FF FF FF FF
  can0  0CF00400   [8]  FF FF FF D9 2A FF FF FF
  can0  18FEF200   [8]  FF FF FF FF FF FF 10 FF
  can0  0CF00400   [8]  FF FF FF 56 2B FF FF FF
  can0  0CF00300   [8]  FC 00 FF FF FF FF FF FF
  can0  0CF00400   [8]  FF FF FF 56 2B FF FF FF
  can0  0CF00400   [8]  FF FF FF 17 2B FF FF FF
  can0  0CF00400   [8]  FF FF FF D9 2A FF FF FF
  can0  0CF00300   [8]  FC 00 FF FF FF FF FF FF
  can0  0CF00400   [8]  FF FF FF F2 2B FF FF FF
  can0  18FEF200   [8]  FF FF FF FF FF FF 10 FF
  can0  0CF00400   [8]  FF FF FF F2 2B FF FF FF
  can0  0CF00300   [8]  FC 00 FF FF FF FF FF FF
  can0  0CF00400   [8]  FF FF FF F8 2A FF FF FF
  can0  0CF00400   [8]  FF FF FF C0 29 FF FF FF
  can0  0CF00400   [8]  FF FF FF B2 26 FF FF FF
  can0  0CF00300   [8]  FC 00 FF FF FF FF FF FF
  can0  0CF00400   [8]  FF FF FF 6E 27 FF FF FF
  can0  18FEF200   [8]  FF FF FF FF FF FF 0F FF
  can0  0CF00400   [8]  FF FF FF 6E 27 FF FF FF
  can0  0CF00300   [8]  FC 00 FF FF FF FF FF FF
  can0  0CF00400   [8]  FF FF FF 68 28 FF FF FF
  can0  18FEF600   [8]  FF FF 3D 1A FF FF FF FF
  can0  0CF00400   [8]  FF FF FF 87 28 FF FF FF
  can0  0CF00400   [8]  FF FF FF FE 29 FF FF FF
  can0  0CF00300   [8]  FC 00 FF FF FF FF FF FF
  can0  0CF00400   [8]  FF FF FF A0 29 FF FF FF
  can0  18FEF200   [8]  FF FF FF FF FF FF 0F FF
  can0  0CF00400   [8]  FF FF FF 37 2B FF FF FF
  can0  0CF00300   [8]  FC 00 FF FF FF FF FF FF
  can0  0CF00400   [8]  FF FF FF D3 2B FF FF FF
  can0  0CF00400   [8]  FF FF FF 11 2C FF FF FF
  can0  0CF00400   [8]  FF FF FF D3 2B FF FF FF
  can0  0CF00300   [8]  FC 00 FF FF FF FF FF FF
  can0  0CF00400   [8]  FF FF FF 75 2B FF FF FF
  can0  18FEF200   [8]  FF FF FF FF FF FF 0F FF
  can0  0CF00400   [8]  FF FF FF FE 29 FF FF FF
  can0  0CF00300   [8]  FC 00 FF FF FF FF FF FF
  can0  0CF00400   [8]  FF FF FF FE 29 FF FF FF
  can0  0CF00400   [8]  FF FF FF C0 29 FF FF FF
  can0  18FEEE00   [8]  3E FF FF FF FF FF FF FF
  can0  0CF00400   [8]  FF FF FF 62 29 FF FF FF
  can0  0CF00300   [8]  FC 00 FF FF FF FF FF FF
  can0  0CF00400   [8]  FF FF FF 3D 2A FF FF FF
  can0  18FEF200   [8]  FF FF FF FF FF FF 0F FF
  can0  0CF00400   [8]  FF FF FF 23 29 FF FF FF
  can0  0CF00300   [8]  FC 00 FF FF FF FF FF FF
  can0  0CF00400   [8]  FF FF FF 62 29 FF FF FF
  can0  18FEF700   [8]  FF FF FF FF 06 01 FF FF
  can0  0CF00400   [8]  FF FF FF 62 29 FF FF FF
  can0  18FEF500   [8]  CB FF FF FF FF FF FF FF
  can0  0CF00400   [8]  FF FF FF F8 2A FF FF FF
  can0  0CF00300   [8]  FC 00 FF FF FF FF FF FF
  can0  0CF00400   [8]  FF FF FF 9A 2A FF FF FF
  can0  18FEF200   [8]  FF FF FF FF FF FF 10 FF
  can0  0CF00400   [8]  FF FF FF BA 2A FF FF FF
  can0  0CF00300   [8]  FC 00 FF FF FF FF FF FF
  can0  0CF00400   [8]  FF FF FF BA 2A FF FF FF
  can0  18FECA00   [8]  00 FF 00 00 00 00 FF FF
  can0  0CF00400   [8]  FF FF FF 7B 2A FF FF FF
  can0  0CF00400   [8]  FF FF FF 1D 2A FF FF FF
  can0  0CF00300   [8]  FC 00 FF FF FF FF FF FF
  can0  0CF00400   [8]  FF FF FF A0 29 FF FF FF
  can0  18FEF200   [8]  FF FF FF FF FF FF 10 FF
  can0  0CF00400   [8]  FF FF FF 17 2B FF FF FF
  can0  0CF00300   [8]  FC 00 FF FF FF FF FF FF
  can0  0CF00400   [8]  FF FF FF 75 2B FF FF FF
  can0  18FEF600   [8]  FF FF 3E 1A FF FF FF FF
  can0  0CF00400   [8]  FF FF FF BA 2A FF FF FF
  can0  0CF00400   [8]  FF FF FF 5C 2A FF FF FF
  can0  0CF00300   [8]  FC 00 FF FF FF FF FF FF
  can0  0CF00400   [8]  FF FF FF 1D 2A FF FF FF
  can0  18FEF200   [8]  FF FF FF FF FF FF 0F FF
  can0  0CF00400   [8]  FF FF FF A0 29 FF FF FF
  can0  0CF00300   [8]  FC 00 FF FF FF FF FF FF
  can0  0CF00400   [8]  FF FF FF A0 29 FF FF FF
  can0  0CF00400   [8]  FF FF FF C0 29 FF FF FF
  can0  0CF00400   [8]  FF FF FF DF 29 FF FF FF
  can0  0CF00300   [8]  FC 00 FF FF FF FF FF FF
  can0  0CF00400   [8]  FF FF FF FE 29 FF FF FF
  can0  18FEF200   [8]  FF FF FF FF FF FF 0F FF
  can0  0CF00400   [8]  FF FF FF 37 2B FF FF FF
  can0  0CF00300   [8]  FC 00 FF FF FF FF FF FF
  can0  0CF00400   [8]  FF FF FF D9 2A FF FF FF
  can0  0CF00400   [8]  FF FF FF F8 2A FF FF FF
  can0  0CF00400   [8]  FF FF FF 37 2B FF FF FF
  can0  0CF00300   [8]  FC 00 FF FF FF FF FF FF
  can0  0CF00400   [8]  FF FF FF BA 2A FF FF FF
  can0  18FEF200   [8]  FF FF FF FF FF FF 10 FF
  can0  0CF00400   [8]  FF FF FF 3D 2A FF FF FF
  can0  0CF00300   [8]  FC 00 FF FF FF FF FF FF
  can0  0CF00400   [8]  FF FF FF 43 29 FF FF FF
  can0  0CF00400   [8]  FF FF FF 43 29 FF FF FF
  can0  0CF00400   [8]  FF FF FF 43 29 FF FF FF
  can0  0CF00300   [8]  FC 00 FF FF FF FF FF FF
  can0  0CF00400   [8]  FF FF FF 23 29 FF FF FF
  can0  18FEF200   [8]  FF FF FF FF FF FF 0F FF
  can0  0CF00400   [8]  FF FF FF 23 29 FF FF FF
