# candump sample with -l option.
#
# This sample file was logged from an NMEA 2K bus
# containing a :
# Raymarine p70 Display
# SeaTalk-STNG-Converter
# Raymarine ACU200 Actuator Unit
# Raymarine EV-1 Course Computer
# Em-Track  B300

(1502984866.421964) slcan0 09F112CC#FF725AFF7FFF7FFD
(1502984866.421986) slcan0 09F113CC#FFD4E10000FFFFFF
(1502984866.421990) slcan0 09F119CC#FF725AFAF7FF04FF
(1502984866.421993) slcan0 09F10DCC#00FFFF7FE9FBFFFF
(1502984866.429139) slcan0 09F8012B#F12B6B1B8E5E36FF
(1502984866.429162) slcan0 09F10DCC#FCF8FF7FFF7FFFFF
(1502984866.429166) slcan0 1DEFFFCC#C0083B9FF0819C51
(1502984866.429168) slcan0 1CFF4FCC#3B9FFFFFFF715AFF
(1502984866.429171) slcan0 1DEFFFCC#C115FBFFFFFFFFFF
(1502984866.444598) slcan0 09F10DAC#FCF8FF7FE9FBFFFF
(1502984866.473256) slcan0 09F8022B#FF00000001000000
(1502984866.523578) slcan0 09F112CC#FF705AFF7FFF7FFD
(1502984866.523601) slcan0 09F113CC#FFC36F0000FFFFFF
(1502984866.523605) slcan0 09F119CC#FF705AF7F7FD04FF
(1502984866.523607) slcan0 09F8012B#F12B6B1B8E5E36FF
(1502984866.527650) slcan0 09F10DCC#00FFFF7FE9FBFFFF
(1502984866.527663) slcan0 09F10DCC#FCF8FF7FFF7FFFFF
(1502984866.527666) slcan0 1CFF4FCC#3B9FFFFFFF705AFF
(1502984866.545601) slcan0 09F10DAC#FCF8FF7FE9FBFFFF
(1502984866.596472) slcan0 09F105AC#20153CC01FFF7FFF
(1502984866.596491) slcan0 09F105AC#21FFFFFFFFFFFFFF
(1502984866.596494) slcan0 09F105AC#22FF7FFF7FFF7FFF
(1502984866.596498) slcan0 09F105AC#23FFFFFFFFFFFFFF
(1502984866.622155) slcan0 09F112CC#FF715AFF7FFF7FFD
(1502984866.622173) slcan0 09F113CC#FF4C6C0000FFFFFF
(1502984866.622178) slcan0 09F119CC#FF715AF5F7FB04FF
(1502984866.622180) slcan0 09F10DCC#00FFFF7FE9FBFFFF
(1502984866.627950) slcan0 09F8012B#F12B6B1B8E5E36FF
(1502984866.627967) slcan0 09F10DCC#FCF8FF7FFF7FFFFF
(1502984866.627971) slcan0 1CFF4FCC#3B9FFFFFFF715AFF
(1502984866.645569) slcan0 09F10DAC#FCF8FF7FF2FBFFFF
(1502984866.721994) slcan0 09F112CC#FF735AFF7FFF7FFD
(1502984866.722015) slcan0 09F113CC#FFD28B0000FFFFFF
(1502984866.722019) slcan0 09F119CC#FF735AF1F7F904FF
(1502984866.722023) slcan0 09F10DCC#00FFFF7FF2FBFFFF
(1502984866.727746) slcan0 09F8012B#F12B6B1B8E5E36FF
(1502984866.727761) slcan0 09F10DCC#FCF8FF7FFF7FFFFF
(1502984866.727765) slcan0 1CFF4FCC#3B9FFFFFFF745AFF
(1502984866.733318) slcan0 09F8022B#FF00000001000000
(1502984866.744540) slcan0 09F10DAC#FCF8FF7FE9FBFFFF
(1502984866.754675) slcan0 1DEFFF00#80073B9FF0819000
(1502984866.754689) slcan0 1DEFFF00#8103FFFFFFFFFFFF
(1502984866.803321) slcan0 11F80F2B#A01B12D62E8E0D8E
(1502984866.813173) slcan0 11F80F2B#A15E36FFF12B6B1B
(1502984866.820360) slcan0 09FD0274#009201124DFAFFFF
(1502984866.824444) slcan0 11F80F2B#A2BFFFFF00000600
(1502984866.824458) slcan0 09F112CC#FF745AFF7FFF7FFD
(1502984866.824461) slcan0 09F113CC#FF3E960000FFFFFF
(1502984866.830364) slcan0 09F119CC#FF755AF0F7F904FF
(1502984866.830383) slcan0 09F10DCC#00FFFF7FE9FBFFFF
(1502984866.830386) slcan0 09F10DCC#FCF8FF7FFF7FFFFF
(1502984866.830389) slcan0 1CFF4FCC#3B9FFFFFFF755AFF
(1502984866.833177) slcan0 11F80F2B#A326FFFF007401FF
(1502984866.845464) slcan0 09F105AC#40153CC01FFF7FFF
(1502984866.845478) slcan0 09F105AC#41FFFFFFFFFFFFFF
(1502984866.845482) slcan0 09F105AC#42FF7FFF7FFF7FFF
(1502984866.845484) slcan0 09F105AC#43FFFFFFFFFFFFFF
(1502984866.847461) slcan0 09F10DAC#FCF8FF7FE9FBFFFF
(1502984866.863295) slcan0 09F8012B#F12B6B1B8E5E36FF
(1502984866.872165) slcan0 0DF50B74#00D0000000FFFFFF
(1502984866.882663) slcan0 0DEDCC00#40150000EF01FFFF
(1502984866.882683) slcan0 0DEDCC00#41FFFFFFFF04013B
(1502984866.882686) slcan0 0DEDCC00#42070304046C051A
(1502984866.882689) slcan0 0DEDCC00#4350FFFFFFFFFFFF
(1502984866.885080) slcan0 1DEF00CC#400D3B9F6C1A5053
(1502984866.885095) slcan0 1DEF00CC#410653065306FF7F
(1502984866.922051) slcan0 09F112CC#FF765AFF7FFF7FFD
(1502984866.922070) slcan0 09F113CC#FFEF940000FFFFFF
(1502984866.922074) slcan0 09F119CC#FF765AEFF7F804FF
(1502984866.922078) slcan0 09F10DCC#00FFFF7FE9FBFFFF
(1502984866.928182) slcan0 09F10DCC#FCF8FF7FFF7FFFFF
(1502984866.928203) slcan0 1CFF63CC#3B9F0000000002FF
(1502984866.928207) slcan0 1CFF4FCC#3B9FFFFFFF765AFF
(1502984866.928210) slcan0 1DEFFFCC#E00D3B9FF0818456
(1502984866.928212) slcan0 1DEFFFCC#E155554000FB0205
(1502984866.943486) slcan0 09F10DAC#FCF8FF7FE9FBFFFF
(1502984866.953084) slcan0 09F50374#001200FFFF00FFFF
(1502984866.953101) slcan0 1CFF1A74#3B9F0E00FFFFFFFF
(1502984866.963297) slcan0 09F8012B#F12B6B1B7D5E36FF
(1502984866.994933) slcan0 1CFF6800#3B9F000000000000
(1502984867.006964) slcan0 15FD0774#00C07774FF7FFFFF
(1502984867.013243) slcan0 09F8022B#FF00000002000000
(1502984867.022755) slcan0 09F112CC#FF765AFF7FFF7FFD
(1502984867.022773) slcan0 09F113CC#FF7E500000FFFFFF
(1502984867.022777) slcan0 09F119CC#FF765AF0F7F804FF
(1502984867.025916) slcan0 09F10DCC#00FFFF7FE9FBFFFF
(1502984867.025929) slcan0 09F10DCC#FCF8FF7FFF7FFFFF
(1502984867.025933) slcan0 1DEFFFCC#00093B9FF081AE02
(1502984867.025937) slcan0 1DEFFFCC#01000CA5FFFFFFFF
(1502984867.031501) slcan0 1CFF4FCC#3B9FFFFFFF765AFF
(1502984867.031515) slcan0 1DFF64CC#20073B9FFFFFFF7F
(1502984867.031519) slcan0 1DFF64CC#21FFFFFFFFFFFFFF
(1502984867.031521) slcan0 09F50374#000F00FFFF00FFFF
(1502984867.044513) slcan0 09F10DAC#FCF8FF7FE9FBFFFF
(1502984867.063372) slcan0 09F8012B#F12B6B1B7D5E36FF
(1502984867.075043) slcan0 15FD0774#00C07774FF7FFFFF
(1502984867.096505) slcan0 09F105AC#60153CC01FFF7FFF
(1502984867.096528) slcan0 09F105AC#61FFFFFFFFFFFFFF
(1502984867.096531) slcan0 09F105AC#62FF7FFF7FFF7FFF
(1502984867.096534) slcan0 09F105AC#63FFFFFFFFFFFFFF
(1502984867.122021) slcan0 09F112CC#FF765AFF7FFF7FFD
(1502984867.122040) slcan0 09F113CC#FFAE380000FFFFFF
(1502984867.122043) slcan0 09F119CC#FF765AF3F7FA04FF
(1502984867.122046) slcan0 09F10DCC#00FFFF7FE9FBFFFF
(1502984867.126477) slcan0 09F10DCC#FCF8FF7FFF7FFFFF
(1502984867.126493) slcan0 1CFF4FCC#3B9FFFFFFF765AFF
(1502984867.145532) slcan0 09F10DAC#FCF8FF7FE9FBFFFF
(1502984867.163328) slcan0 09F8012B#F12B6B1B7D5E36FF
(1502984867.222007) slcan0 09F112CC#FF775AFF7FFF7FFD
(1502984867.222029) slcan0 09F113CC#FFB53D0000FFFFFF
(1502984867.222032) slcan0 09F119CC#FF775AF4F7FA04FF
(1502984867.222037) slcan0 09F10DCC#00FFFF7FE9FBFFFF
(1502984867.226553) slcan0 09F10DCC#FCF8FF7FFF7FFFFF
(1502984867.226568) slcan0 1CFF4FCC#3B9FFFFFFF775AFF
(1502984867.245579) slcan0 09F10DAC#FCF8FF7FF2FBFFFF
(1502984867.263285) slcan0 09F8012B#F12B6B1B7D5E36FF
(1502984867.273328) slcan0 09F8022B#FF00000002000000
(1502984867.285145) slcan0 19F51374#C00EFFFFFFFFFFFF
(1502984867.285160) slcan0 19F51374#C11C4B2400790300
(1502984867.285163) slcan0 19F51374#C200FFFFFFFFFFFF
(1502984867.285167) slcan0 1DFF6774#E00B3B9F0300041C
(1502984867.289129) slcan0 1DFF6774#E1C409190909FFFF
(1502984867.289143) slcan0 1DFF6774#000B3B9F0301041C
(1502984867.289147) slcan0 1DFF6774#01C409190909FFFF
(1502984867.289149) slcan0 1DFF6774#200B3B9F0302041C
(1502984867.292099) slcan0 1DFF6774#21C409190909FFFF
(1502984867.306200) slcan0 0DEDACCC#A0140000EF01FFFF
(1502984867.306218) slcan0 0DEDACCC#A1FFFFFFFF04013B
(1502984867.306222) slcan0 0DEDACCC#A2070304045C050F
(1502984867.306224) slcan0 1DEFCCAC#200F3B9F5C0F0201
(1502984867.308735) slcan0 1DEFCCAC#21FF0106FF02FF01
(1502984867.308750) slcan0 1DEFCCAC#2206FFFFFFFFFFFF
(1502984867.322724) slcan0 09F112CC#FF775AFF7FFF7FFD
(1502984867.322748) slcan0 09F113CC#FF923D0000FFFFFF
(1502984867.322751) slcan0 09F119CC#FF775AF6F7FC04FF
(1502984867.326735) slcan0 09F10DCC#00FFFF7FF2FBFFFF
(1502984867.326756) slcan0 09F10DCC#FCF8FF7FFF7FFFFF
(1502984867.326760) slcan0 1CFF4FCC#3B9FFFFFFF775AFF
(1502984867.344224) slcan0 09F105AC#80153CC01FFF7FFF
(1502984867.344248) slcan0 09F105AC#81FFFFFFFFFFFFFF
(1502984867.344252) slcan0 09F105AC#82FF7FFF7FFF7FFF
(1502984867.344254) slcan0 09F105AC#83FFFFFFFFFFFFFF
(1502984867.346188) slcan0 09F10DAC#FCF8FF7FE9FBFFFF
(1502984867.373244) slcan0 09F8012B#F12B6B1B7D5E36FF
(1502984867.422205) slcan0 09F112CC#FF785AFF7FFF7FFD
(1502984867.422226) slcan0 09F113CC#FF1B400000FFFFFF
(1502984867.422230) slcan0 09F119CC#FF785AF9F7FC04FF
(1502984867.422232) slcan0 09F10DCC#00FFFF7FE9FBFFFF
(1502984867.424171) slcan0 09F10DCC#FCF8FF7FFF7FFFFF
(1502984867.428149) slcan0 1CFF4FCC#3B9FFFFFFF785AFF
(1502984867.428183) slcan0 1DEFFFCC#20083B9FF0819C51
(1502984867.428189) slcan0 1DEFFFCC#2115FBFFFFFFFFFF
(1502984867.444495) slcan0 09F10DAC#FCF8FF7FF2FBFFFF
(1502984867.473359) slcan0 09F8012B#F12B6B1B7D5E36FF
(1502984867.523700) slcan0 09F112CC#FF775AFF7FFF7FFD
(1502984867.523720) slcan0 09F113CC#FFB9190000FFFFFF
(1502984867.523723) slcan0 09F119CC#FF775AFAF7FB04FF
(1502984867.523727) slcan0 09F8022B#FF00000002000000
(1502984867.526291) slcan0 09F10DCC#00FFFF7FF2FBFFFF
(1502984867.526308) slcan0 09F10DCC#FCF8FF7FFF7FFFFF
(1502984867.529116) slcan0 1CFF4FCC#3B9FFFFFFF785AFF
(1502984867.545570) slcan0 09F10DAC#FCF8FF7FE9FBFFFF
(1502984867.573343) slcan0 09F8012B#F12B6B1B7D5E36FF
(1502984867.596384) slcan0 09F105AC#A0153CC01FFF7FFF
(1502984867.596403) slcan0 09F105AC#A1FFFFFFFFFFFFFF
(1502984867.596406) slcan0 09F105AC#A2FF7FFF7FFF7FFF
(1502984867.596410) slcan0 09F105AC#A3FFFFFFFFFFFFFF
(1502984867.623272) slcan0 09F112CC#FF785AFF7FFF7FFD
(1502984867.623290) slcan0 09F113CC#FF6D210000FFFFFF
(1502984867.623293) slcan0 09F119CC#FF785AFCF7FE04FF
(1502984867.623296) slcan0 09F10DCC#00FFFF7FE9FBFFFF
(1502984867.626484) slcan0 09F10DCC#FCF8FF7FFF7FFFFF
(1502984867.626501) slcan0 1CFF4FCC#3B9FFFFFFF795AFF
(1502984867.645551) slcan0 09F10DAC#FCF8FF7FF2FBFFFF
(1502984867.673425) slcan0 09F8012B#F12B6B1B7D5E36FF
(1502984867.723756) slcan0 09F112CC#FF7A5AFF7FFF7FFD
(1502984867.723793) slcan0 09F113CC#FFD23D0000FFFFFF
(1502984867.723797) slcan0 09F119CC#FF7A5AFEF70005FF
(1502984867.723802) slcan0 09F10DCC#00FFFF7FF2FBFFFF
(1502984867.726482) slcan0 09F10DCC#FCF8FF7FFF7FFFFF
(1502984867.726497) slcan0 1CFF4FCC#3B9FFFFFFF795AFF
(1502984867.744435) slcan0 09F10DAC#FCF8FF7FE9FBFFFF
(1502984867.773379) slcan0 09F8012B#F12B6B1B7D5E36FF
(1502984867.783324) slcan0 09F8022B#FF00000002000000
(1502984867.818664) slcan0 09FD0274#007D01B65AFAFFFF
(1502984867.827374) slcan0 09F112CC#FF795AFF7FFF7FFD
(1502984867.827389) slcan0 09F113CC#FF65E7FFFFFFFFFF
(1502984867.827393) slcan0 09F119CC#FF795AFFF70205FF
(1502984867.827412) slcan0 09F10DCC#00FFFF7FE9FBFFFF
(1502984867.829693) slcan0 09F10DCC#FCF8FF7FFF7FFFFF
(1502984867.829712) slcan0 1CFF4FCC#3B9FFFFFFF795AFF
(1502984867.845306) slcan0 09F105AC#C0153CC01FFF7FFF
(1502984867.845323) slcan0 09F105AC#C1FFFFFFFFFFFFFF
(1502984867.845326) slcan0 09F105AC#C2FF7FFF7FFF7FFF
(1502984867.845330) slcan0 09F105AC#C3FFFFFFFFFFFFFF
(1502984867.847378) slcan0 09F10DAC#FCF8FF7FE9FBFFFF
(1502984867.866709) slcan0 0DF50B74#00CD000000FFFFFF
(1502984867.883334) slcan0 09F8012B#F12B6B1B7D5E36FF
(1502984867.895302) slcan0 09F50374#001200FFFF00FFFF
(1502984867.895325) slcan0 1CFF1A74#3B9F0E00FFFFFFFF
(1502984867.916343) slcan0 15FD0774#00C07774FF7FFFFF
(1502984867.923493) slcan0 09F112CC#FF795AFF7FFF7FFD
(1502984867.923511) slcan0 09F113CC#FF48DBFFFFFFFFFF
(1502984867.923514) slcan0 09F119CC#FF795AFFF70205FF
(1502984867.923518) slcan0 09F10DCC#00FFFF7FE9FBFFFF
(1502984867.928318) slcan0 09F10DCC#FCF8FF7FFF7FFFFF
(1502984867.928334) slcan0 1CFF63CC#3B9F0000000002FF
(1502984867.928337) slcan0 1CFF4FCC#3B9FFFFFFF795AFF
(1502984867.928340) slcan0 1DEFFFCC#400D3B9FF0818456
(1502984867.928343) slcan0 1DEFFFCC#4155554000FB0205
(1502984867.940856) slcan0 09F50374#000F00FFFF00FFFF
(1502984867.944433) slcan0 09F10DAC#FCF8FF7FE9FBFFFF
(1502984867.983389) slcan0 09F8012B#012C6B1B7D5E36FF
(1502984867.992199) slcan0 15FD0774#00C07774FF7FFFFF
(1502984867.994791) slcan0 1CFF6800#3B9F000000000000
(1502984868.023197) slcan0 09F112CC#FF795AFF7FFF7FFD
(1502984868.023220) slcan0 09F113CC#FFF8E8FFFFFFFFFF
(1502984868.023224) slcan0 09F119CC#FF795AFCF70105FF
(1502984868.023227) slcan0 09F10DCC#00FFFF7FE9FBFFFF
(1502984868.026674) slcan0 09F10DCC#FCF8FF7FFF7FFFFF
(1502984868.026733) slcan0 1DEFFFCC#60093B9FF081AE02
(1502984868.026739) slcan0 1DEFFFCC#61000CA5FFFFFFFF
(1502984868.026743) slcan0 1CFF4FCC#3B9FFFFFFF795AFF
(1502984868.026746) slcan0 1DFF64CC#40073B9FFFFFFF7F
(1502984868.028738) slcan0 1DFF64CC#41FFFFFFFFFFFFFF
(1502984868.033413) slcan0 09F8022B#FF00000001000000
(1502984868.044548) slcan0 09F10DAC#FCF8FF7FE9FBFFFF
(1502984868.083466) slcan0 09F8012B#012C6B1B7D5E36FF
(1502984868.096459) slcan0 09F105AC#E0153CC01FFF7FFF
(1502984868.096476) slcan0 09F105AC#E1FFFFFFFFFFFFFF
(1502984868.096479) slcan0 09F105AC#E2FF7FFF7FFF7FFF
(1502984868.096482) slcan0 09F105AC#E3FFFFFFFFFFFFFF
(1502984868.123596) slcan0 09F112CC#FF775AFF7FFF7FFD
(1502984868.123613) slcan0 09F113CC#FF3DA6FFFFFFFFFF
(1502984868.123616) slcan0 09F119CC#FF775AFDF70305FF
(1502984868.123620) slcan0 09F10DCC#00FFFF7FE9FBFFFF
(1502984868.126840) slcan0 09F10DCC#FCF8FF7FFF7FFFFF
(1502984868.126858) slcan0 1CFF4FCC#3B9FFFFFFF775AFF
(1502984868.144427) slcan0 09F10DAC#FCF8FF7FF2FBFFFF
(1502984868.183457) slcan0 09F8012B#012C6B1B7D5E36FF
(1502984868.223612) slcan0 09F112CC#FF775AFF7FFF7FFD
(1502984868.223631) slcan0 09F113CC#FFF4AAFFFFFFFFFF
(1502984868.223634) slcan0 09F119CC#FF775AFCF70405FF
(1502984868.223638) slcan0 09F10DCC#00FFFF7FF2FBFFFF
(1502984868.226539) slcan0 09F10DCC#FCF8FF7FFF7FFFFF
(1502984868.226554) slcan0 1CFF4FCC#3B9FFFFFFF765AFF
(1502984868.244445) slcan0 09F10DAC#FCF8FF7FF2FBFFFF
(1502984868.281987) slcan0 19F51374#400EFFFFFFFFFFFF
(1502984868.282006) slcan0 19F51374#411C4B2400790300
(1502984868.282009) slcan0 19F51374#4200FFFFFFFFFFFF
(1502984868.282014) slcan0 09F8012B#012C6B1B7D5E36FF
(1502984868.285291) slcan0 1DFF6774#600B3B9F0300041C
(1502984868.285310) slcan0 1DFF6774#61C409190909FFFF
(1502984868.285313) slcan0 1DFF6774#800B3B9F0301041C
(1502984868.285316) slcan0 1DFF6774#81C409190909FFFF
(1502984868.285318) slcan0 1DFF6774#A00B3B9F0302041C
(1502984868.287496) slcan0 1DFF6774#A1C409190909FFFF
(1502984868.293405) slcan0 09F8022B#FF00000001000000
(1502984868.322877) slcan0 09F112CC#FF735AFF7FFF7FFD
(1502984868.322895) slcan0 09F113CC#FF3143FFFFFFFFFF
(1502984868.322898) slcan0 09F119CC#FF735AFAF70605FF
(1502984868.326752) slcan0 09F10DCC#00FFFF7FF2FBFFFF
(1502984868.326767) slcan0 09F10DCC#FCF8FF7FFF7FFFFF
(1502984868.326770) slcan0 1CFF4FCC#3B9FFFFFFF735AFF
(1502984868.344190) slcan0 09F105AC#00153CC01FFF7FFF
(1502984868.344209) slcan0 09F105AC#01FFFFFFFFFFFFFF
(1502984868.344212) slcan0 09F105AC#02FF7FFF7FFF7FFF
(1502984868.344215) slcan0 09F105AC#03FFFFFFFFFFFFFF
(1502984868.346153) slcan0 09F10DAC#FCF8FF7FE9FBFFFF
(1502984868.393430) slcan0 09F8012B#012C6B1B7D5E36FF
(1502984868.423573) slcan0 09F112CC#FF745AFF7FFF7FFD
(1502984868.423591) slcan0 09F113CC#FF5988FFFFFFFFFF
(1502984868.423594) slcan0 09F119CC#FF745AF9F70505FF
(1502984868.423597) slcan0 09F10DCC#00FFFF7FE9FBFFFF
(1502984868.427877) slcan0 09F10DCC#FCF8FF7FFF7FFFFF
(1502984868.427893) slcan0 1CFF4FCC#3B9FFFFFFF745AFF
(1502984868.427896) slcan0 1DEFFFCC#80083B9FF0819C51
(1502984868.427899) slcan0 1DEFFFCC#8115FBFFFFFFFFFF
(1502984868.444376) slcan0 09F10DAC#FCF8FF7FE9FBFFFF
(1502984868.482618) slcan0 0DEDCC00#60150000EF01FFFF
(1502984868.482640) slcan0 0DEDCC00#61FFFFFFFF04013B
(1502984868.482644) slcan0 0DEDCC00#62070304046C0523
(1502984868.482646) slcan0 0DEDCC00#6350FFFFFFFFFFFF
(1502984868.485157) slcan0 1DEF00CC#60093B9F6C235064
(1502984868.485171) slcan0 1DEF00CC#61646400FFFFFFFF
(1502984868.493357) slcan0 09F8012B#012C6B1B7D5E36FF
(1502984868.522782) slcan0 09F112CC#FF745AFF7FFF7FFD
(1502984868.522801) slcan0 09F113CC#FFD9A0FFFFFFFFFF
(1502984868.522804) slcan0 09F119CC#FF745AF7F70505FF
(1502984868.526921) slcan0 09F10DCC#00FFFF7FE9FBFFFF
(1502984868.526942) slcan0 09F10DCC#FCF8FF7FFF7FFFFF
(1502984868.526946) slcan0 1CFF4FCC#3B9FFFFFFF745AFF
(1502984868.544081) slcan0 09F10DAC#FCF8FF7FE9FBFFFF
(1502984868.544099) slcan0 09F8022B#FF00000001000000
(1502984868.594653) slcan0 09F8012B#012C6B1B7D5E36FF
(1502984868.594676) slcan0 09F105AC#20153CC01FFF7FFF
(1502984868.594679) slcan0 09F105AC#21FFFFFFFFFFFFFF
(1502984868.594683) slcan0 09F105AC#22FF7FFF7FFF7FFF
(1502984868.596547) slcan0 09F105AC#23FFFFFFFFFFFFFF
(1502984868.623195) slcan0 09F112CC#FF735AFF7FFF7FFD
(1502984868.623214) slcan0 09F113CC#FFB98AFFFFFFFFFF
(1502984868.623217) slcan0 09F119CC#FF735AF7F70505FF
(1502984868.623220) slcan0 09F10DCC#00FFFF7FE9FBFFFF
(1502984868.626653) slcan0 09F10DCC#FCF8FF7FFF7FFFFF
(1502984868.626668) slcan0 1CFF4FCC#3B9FFFFFFF725AFF
(1502984868.645397) slcan0 09F10DAC#FCF8FF7FE9FBFFFF
(1502984868.693485) slcan0 09F8012B#012C6B1B7D5E36FF
(1502984868.723667) slcan0 09F112CC#FF705AFF7FFF7FFD
(1502984868.723688) slcan0 09F113CC#FF1A4BFFFFFFFFFF
(1502984868.723691) slcan0 09F119CC#FF705AF5F70505FF
(1502984868.723696) slcan0 09F10DCC#00FFFF7FE9FBFFFF
(1502984868.726643) slcan0 09F10DCC#FCF8FF7FFF7FFFFF
(1502984868.726658) slcan0 1CFF4FCC#3B9FFFFFFF6F5AFF
(1502984868.744410) slcan0 09F10DAC#FCF8FF7FE9FBFFFF
(1502984868.754826) slcan0 1DEFFF00#A0073B9FF0819000
(1502984868.754842) slcan0 1DEFFF00#A103FFFFFFFFFFFF
(1502984868.793483) slcan0 09F8012B#012C6B1B7D5E36FF
(1502984868.803570) slcan0 09F8022B#FF00000001000000
(1502984868.815774) slcan0 11F80F2B#C01B12D62E8E0D7E
(1502984868.815795) slcan0 09FD0274#009201085AFAFFFF
(1502984868.823350) slcan0 09F112CC#FF6D5AFF7FFF7FFD
(1502984868.823364) slcan0 09F113CC#FFC00CFFFFFFFFFF
(1502984868.823368) slcan0 11F80F2B#C15E36FF022C6B1B
(1502984868.828602) slcan0 09F119CC#FF6D5AF5F70605FF
(1502984868.828617) slcan0 09F10DCC#00FFFF7FE9FBFFFF
(1502984868.828620) slcan0 09F10DCC#FCF8FF7FFF7FFFFF
(1502984868.828623) slcan0 1CFF4FCC#3B9FFFFFFF6D5AFF
(1502984868.833432) slcan0 11F80F2B#C2C7FFFF00000600
(1502984868.844856) slcan0 11F80F2B#C326FFFF007401FF
(1502984868.844879) slcan0 09F105AC#40153CC01FFF7FFF
(1502984868.844883) slcan0 09F105AC#41FFFFFFFFFFFFFF
(1502984868.844886) slcan0 09F105AC#42FF7FFF7FFF7FFF
(1502984868.847725) slcan0 09F105AC#43FFFFFFFFFFFFFF
(1502984868.847742) slcan0 09F10DAC#FCF8FF7FE9FBFFFF
(1502984868.868619) slcan0 0DF50B74#00C7000000FFFFFF
(1502984868.901966) slcan0 09F50374#001200FFFF00FFFF
(1502984868.901984) slcan0 1CFF1A74#3B9F0E00FFFFFFFF
(1502984868.923592) slcan0 09F112CC#FF6D5AFF7FFF7FFD
(1502984868.923610) slcan0 09F113CC#FFBF2FFFFFFFFFFF
(1502984868.923613) slcan0 09F119CC#FF6D5AF3F70605FF
(1502984868.923618) slcan0 09F10DCC#00FFFF7FE9FBFFFF
(1502984868.926380) slcan0 09F10DCC#FCF8FF7FFF7FFFFF
(1502984868.926403) slcan0 1CFF63CC#3B9F0000000002FF
(1502984868.926406) slcan0 1CFF4FCC#3B9FFFFFFF6D5AFF
(1502984868.926409) slcan0 1DEFFFCC#A00D3B9FF0818456
(1502984868.926412) slcan0 1DEFFFCC#A155554000FB0205
(1502984868.928597) slcan0 15FD0774#00C07774FF7FFFFF
(1502984868.933450) slcan0 09F8012B#012C6B1B6D5E36FF
(1502984868.944358) slcan0 09F10DAC#FCF8FF7FF2FBFFFF
(1502984868.989618) slcan0 09F50374#000F00FFFF00FFFF
(1502984868.994926) slcan0 1CFF6800#3B9F000000000000
(1502984869.010979) slcan0 15FD0774#00C07774FF7FFFFF
(1502984869.023290) slcan0 09F112CC#FF6D5AFF7FFF7FFD
(1502984869.023308) slcan0 09F113CC#FFE95DFFFFFFFFFF
(1502984869.023315) slcan0 09F119CC#FF6D5AF3F70505FF
(1502984869.023318) slcan0 09F10DCC#00FFFF7FF2FBFFFF
(1502984869.026657) slcan0 09F10DCC#FCF8FF7FFF7FFFFF
(1502984869.026672) slcan0 1DEFFFCC#C0093B9FF081AE02
(1502984869.026675) slcan0 1DEFFFCC#C1000CA5FFFFFFFF
(1502984869.026679) slcan0 1CFF4FCC#3B9FFFFFFF6C5AFF
(1502984869.026681) slcan0 1DFF64CC#60073B9FFFFFFF7F
(1502984869.028733) slcan0 1DFF64CC#61FFFFFFFFFFFFFF
(1502984869.035249) slcan0 09F8012B#012C6B1B6D5E36FF
(1502984869.044334) slcan0 09F10DAC#FCF8FF7FF2FBFFFF
(1502984869.083572) slcan0 09F8022B#FF00000003000000
(1502984869.096206) slcan0 09F105AC#60153CC01FFF7FFF
(1502984869.096223) slcan0 09F105AC#61FFFFFFFFFFFFFF
(1502984869.096226) slcan0 09F105AC#62FF7FFF7FFF7FFF
(1502984869.096229) slcan0 09F105AC#63FFFFFFFFFFFFFF
(1502984869.123737) slcan0 09F112CC#FF6D5AFF7FFF7FFD
(1502984869.123758) slcan0 09F113CC#FF838BFFFFFFFFFF
(1502984869.123761) slcan0 09F119CC#FF6D5AF4F70505FF
(1502984869.123765) slcan0 09F10DCC#00FFFF7FF2FBFFFF
(1502984869.126612) slcan0 09F10DCC#FCF8FF7FFF7FFFFF
(1502984869.126630) slcan0 1CFF4FCC#3B9FFFFFFF6D5AFF
(1502984869.133491) slcan0 09F8012B#012C6B1B6D5E36FF
(1502984869.144341) slcan0 09F10DAC#FCF8FF7FF2FBFFFF
(1502984869.225071) slcan0 09F112CC#FF6D5AFF7FFF7FFD
(1502984869.225098) slcan0 09F113CC#FF7F8FFFFFFFFFFF
(1502984869.225102) slcan0 09F119CC#FF6C5AF6F70305FF
(1502984869.225109) slcan0 09F10DCC#00FFFF7FF2FBFFFF
(1502984869.227725) slcan0 09F10DCC#FCF8FF7FFF7FFFFF
(1502984869.227740) slcan0 1CFF4FCC#3B9FFFFFFF6C5AFF
(1502984869.233494) slcan0 09F8012B#012C6B1B6D5E36FF
(1502984869.244240) slcan0 09F10DAC#FCF8FF7FE9FBFFFF
(1502984869.279508) slcan0 19F51374#C00EFFFFFFFFFFFF
(1502984869.279528) slcan0 19F51374#C11C4B2400790300
(1502984869.279532) slcan0 19F51374#C200FFFFFFFFFFFF
(1502984869.279536) slcan0 1DFF6774#E00B3B9F0300041C
(1502984869.283342) slcan0 1DFF6774#E1C409190909FFFF
(1502984869.283361) slcan0 1DFF6774#000B3B9F0301041C
(1502984869.283364) slcan0 1DFF6774#01C409190909FFFF
(1502984869.283367) slcan0 1DFF6774#200B3B9F0302041C
(1502984869.286284) slcan0 1DFF6774#21C409190909FFFF
(1502984869.324239) slcan0 09F112CC#FF6B5AFF7FFF7FFD
(1502984869.324261) slcan0 09F113CC#FF4573FFFFFFFFFF
(1502984869.324266) slcan0 09F119CC#FF6B5AF6F70205FF
(1502984869.324268) slcan0 09F10DCC#00FFFF7FE9FBFFFF
(1502984869.326811) slcan0 09F10DCC#FCF8FF7FFF7FFFFF
(1502984869.326826) slcan0 1CFF4FCC#3B9FFFFFFF6B5AFF
(1502984869.333494) slcan0 09F8012B#012C6B1B6D5E36FF
(1502984869.344525) slcan0 09F8022B#FF00000003000000
(1502984869.344540) slcan0 09F105AC#80153CC01FFF7FFF
(1502984869.344544) slcan0 09F105AC#81FFFFFFFFFFFFFF
(1502984869.344547) slcan0 09F105AC#82FF7FFF7FFF7FFF
(1502984869.347271) slcan0 09F105AC#83FFFFFFFFFFFFFF
(1502984869.347288) slcan0 09F10DAC#FCF8FF7FF2FBFFFF
(1502984869.422124) slcan0 09F112CC#FF685AFF7FFF7FFD
(1502984869.422143) slcan0 09F113CC#FF3126FFFFFFFFFF
(1502984869.422146) slcan0 09F119CC#FF685AF7F70005FF
(1502984869.422150) slcan0 09F10DCC#00FFFF7FF2FBFFFF
(1502984869.424182) slcan0 09F10DCC#FCF8FF7FFF7FFFFF
(1502984869.427994) slcan0 1CFF4FCC#3B9FFFFFFF685AFF
(1502984869.428009) slcan0 1DEFFFCC#E0083B9FF0819C51
(1502984869.428012) slcan0 1DEFFFCC#E115FBFFFFFFFFFF
(1502984869.444777) slcan0 09F8012B#012C6B1B6D5E36FF
(1502984869.444795) slcan0 09F10DAC#FCF8FF7FE9FBFFFF
(1502984869.522834) slcan0 09F112CC#FF695AFF7FFF7FFD
(1502984869.522854) slcan0 09F113CC#FF9C68FFFFFFFFFF
(1502984869.522858) slcan0 09F119CC#FF695AF8F7FC04FF
(1502984869.526811) slcan0 09F10DCC#00FFFF7FE9FBFFFF
(1502984869.526826) slcan0 09F10DCC#FCF8FF7FFF7FFFFF
(1502984869.526829) slcan0 1CFF4FCC#3B9FFFFFFF685AFF
(1502984869.544100) slcan0 09F10DAC#FCF8FF7FE9FBFFFF
(1502984869.544120) slcan0 09F8012B#012C6B1B6D5E36FF
(1502984869.594534) slcan0 09F8022B#FF00000003000000
(1502984869.594554) slcan0 09F105AC#A0153CC01FFF7FFF
(1502984869.594557) slcan0 09F105AC#A1FFFFFFFFFFFFFF
(1502984869.594561) slcan0 09F105AC#A2FF7FFF7FFF7FFF
(1502984869.596497) slcan0 09F105AC#A3FFFFFFFFFFFFFF
(1502984869.623239) slcan0 09F112CC#FF6A5AFF7FFF7FFD
(1502984869.623264) slcan0 09F113CC#FFC8B6FFFFFFFFFF
(1502984869.623268) slcan0 09F119CC#FF6A5AFAF7FA04FF
(1502984869.623271) slcan0 09F10DCC#00FFFF7FE9FBFFFF
(1502984869.626670) slcan0 09F10DCC#FCF8FF7FFF7FFFFF
(1502984869.626685) slcan0 1CFF4FCC#3B9FFFFFFF6A5AFF
(1502984869.645592) slcan0 09F8012B#012C6B1B6D5E36FF
(1502984869.645614) slcan0 09F10DAC#FCF8FF7FE9FBFFFF
(1502984869.723883) slcan0 09F112CC#FF6C5AFF7FFF7FFD
(1502984869.723904) slcan0 09F113CC#FF67FCFFFFFFFFFF
(1502984869.723908) slcan0 09F119CC#FF6C5AFCF7F704FF
(1502984869.723912) slcan0 09F10DCC#00FFFF7FE9FBFFFF
(1502984869.726650) slcan0 09F10DCC#FCF8FF7FFF7FFFFF
(1502984869.726668) slcan0 1CFF4FCC#3B9FFFFFFF6C5AFF
(1502984869.744754) slcan0 09F8012B#012C6B1B6D5E36FF
(1502984869.744771) slcan0 09F10DAC#FCF8FF7FE9FBFFFF
(1502984869.820199) slcan0 09FD0274#008C01156BFAFFFF
(1502984869.824800) slcan0 09F112CC#FF6D5AFF7FFF7FFD
(1502984869.824817) slcan0 09F113CC#FFAA260000FFFFFF
(1502984869.830697) slcan0 09F119CC#FF6D5AFBF7F304FF
(1502984869.830711) slcan0 09F10DCC#00FFFF7FE9FBFFFF
(1502984869.830715) slcan0 09F10DCC#FCF8FF7FFF7FFFFF
(1502984869.830719) slcan0 1CFF4FCC#3B9FFFFFFF6D5AFF
(1502984869.844837) slcan0 09F8012B#012C6B1B6D5E36FF
(1502984869.844856) slcan0 09F105AC#C0153CC01FFF7FFF
(1502984869.844860) slcan0 09F105AC#C1FFFFFFFFFFFFFF
(1502984869.844875) slcan0 09F105AC#C2FF7FFF7FFF7FFF
(1502984869.847646) slcan0 09F105AC#C3FFFFFFFFFFFFFF
(1502984869.847661) slcan0 09F10DAC#FCF8FF7FE9FBFFFF
(1502984869.853540) slcan0 09F8022B#FF00000003000000
(1502984869.874815) slcan0 0DF50B74#00C7000000FFFFFF
(1502984869.902555) slcan0 09F50374#001100FFFF00FFFF
(1502984869.902574) slcan0 1CFF1A74#3B9F0E00FFFFFFFF
(1502984869.922189) slcan0 09F112CC#FF6E5AFF7FFF7FFD
(1502984869.922208) slcan0 09F113CC#FFE31A0000FFFFFF
(1502984869.922211) slcan0 09F119CC#FF6E5AFBF7F004FF
(1502984869.922216) slcan0 09F10DCC#00FFFF7FE9FBFFFF
(1502984869.926837) slcan0 09F10DCC#FCF8FF7FFF7FFFFF
(1502984869.926857) slcan0 1CFF63CC#3B9F0000000002FF
(1502984869.926861) slcan0 1CFF4FCC#3B9FFFFFFF6D5AFF
(1502984869.926864) slcan0 1DEFFFCC#000D3B9FF0818456
(1502984869.926867) slcan0 15FD0774#00C07774FF7FFFFF
(1502984869.928681) slcan0 1DEFFFCC#0155554000FB0205
(1502984869.943211) slcan0 09F10DAC#FCF8FF7FE9FBFFFF
(1502984869.953537) slcan0 09F8012B#012C6B1B6D5E36FF
(1502984869.994979) slcan0 1CFF6800#3B9F000000000000
(1502984870.023256) slcan0 09F112CC#FF6F5AFF7FFF7FFD
(1502984870.023277) slcan0 09F113CC#FF844C0000FFFFFF
(1502984870.023281) slcan0 09F119CC#FF6F5AFAF7EA04FF
(1502984870.023284) slcan0 09F10DCC#00FFFF7FE9FBFFFF
(1502984870.026639) slcan0 09F10DCC#FCF8FF7FFF7FFFFF
(1502984870.026653) slcan0 1DEFFFCC#20093B9FF081AE02
(1502984870.026656) slcan0 1DEFFFCC#21000CA5FFFFFFFF
(1502984870.026659) slcan0 1CFF4FCC#3B9FFFFFFF6F5AFF
(1502984870.026662) slcan0 1DFF64CC#80073B9FFFFFFF7F
(1502984870.029281) slcan0 1DFF64CC#81FFFFFFFFFFFFFF
(1502984870.043548) slcan0 09F10DAC#FCF8FF7FF2FBFFFF
(1502984870.053539) slcan0 09F8012B#012C6B1B6D5E36FF
(1502984870.077102) slcan0 09F50374#000F00FFFF00FFFF
(1502984870.083090) slcan0 0DEDCC00#80150000EF01FFFF
(1502984870.083110) slcan0 0DEDCC00#81FFFFFFFF04013B
(1502984870.083113) slcan0 0DEDCC00#82070304046C051A
(1502984870.083116) slcan0 0DEDCC00#8350FFFFFFFFFFFF
(1502984870.086240) slcan0 1DEF00CC#800D3B9F6C1A5053
(1502984870.086256) slcan0 1DEF00CC#810653065306FF7F
(1502984870.096068) slcan0 09F105AC#E0153CC01FFF7FFF
(1502984870.096082) slcan0 09F105AC#E1FFFFFFFFFFFFFF
(1502984870.096085) slcan0 09F105AC#E2FF7FFF7FFF7FFF
(1502984870.096088) slcan0 09F105AC#E3FFFFFFFFFFFFFF
(1502984870.104165) slcan0 09F8022B#FF00000006000000
(1502984870.104183) slcan0 15FD0774#00C07774FF7FFFFF
(1502984870.123681) slcan0 09F112CC#FF705AFF7FFF7FFD
(1502984870.123700) slcan0 09F113CC#FFA3560000FFFFFF
(1502984870.123703) slcan0 09F119CC#FF705AFAF7E604FF
(1502984870.123708) slcan0 09F10DCC#00FFFF7FF2FBFFFF
(1502984870.126586) slcan0 09F10DCC#FCF8FF7FFF7FFFFF
(1502984870.126601) slcan0 1CFF4FCC#3B9FFFFFFF705AFF
(1502984870.144283) slcan0 09F10DAC#FCF8FF7FF2FBFFFF
(1502984870.153597) slcan0 09F8012B#012C6B1B6D5E36FF
(1502984870.223733) slcan0 09F112CC#FF705AFF7FFF7FFD
(1502984870.223754) slcan0 09F113CC#FF0A350000FFFFFF
(1502984870.223758) slcan0 09F119CC#FF705AF7F7E104FF
(1502984870.223762) slcan0 09F10DCC#00FFFF7FF2FBFFFF
(1502984870.226593) slcan0 09F10DCC#FCF8FF7FFF7FFFFF
(1502984870.226609) slcan0 1CFF4FCC#3B9FFFFFFF705AFF
(1502984870.244313) slcan0 09F10DAC#FCF8FF7FE9FBFFFF
(1502984870.253562) slcan0 09F8012B#012C6B1B6D5E36FF
(1502984870.275961) slcan0 19F51374#400EFFFFFFFFFFFF
(1502984870.275981) slcan0 19F51374#411C4B2400790300
(1502984870.275984) slcan0 19F51374#4200FFFFFFFFFFFF
(1502984870.275988) slcan0 1DFF6774#600B3B9F0300041C
(1502984870.279935) slcan0 1DFF6774#61C409190909FFFF
(1502984870.279950) slcan0 1DFF6774#800B3B9F0301041C
(1502984870.279953) slcan0 1DFF6774#81C409190909FFFF
(1502984870.279956) slcan0 1DFF6774#A00B3B9F0302041C
(1502984870.282938) slcan0 1DFF6774#A1C409190909FFFF
(1502984870.322778) slcan0 09F112CC#FF725AFF7FFF7FFD
(1502984870.322802) slcan0 09F113CC#FFBB540000FFFFFF
(1502984870.322806) slcan0 09F119CC#FF725AF6F7DC04FF
(1502984870.326831) slcan0 09F10DCC#00FFFF7FE9FBFFFF
(1502984870.326846) slcan0 09F10DCC#FCF8FF7FFF7FFFFF
(1502984870.326849) slcan0 1CFF4FCC#3B9FFFFFFF725AFF
(1502984870.344969) slcan0 09F105AC#00153CC01FFF7FFF
(1502984870.344990) slcan0 09F105AC#01FFFFFFFFFFFFFF
(1502984870.344993) slcan0 09F105AC#02FF7FFF7FFF7FFF
(1502984870.344996) slcan0 09F105AC#03FFFFFFFFFFFFFF
(1502984870.346966) slcan0 09F10DAC#FCF8FF7FE9FBFFFF
(1502984870.353611) slcan0 09F8012B#012C6B1B6D5E36FF
(1502984870.363611) slcan0 09F8022B#FF00000006000000
(1502984870.423823) slcan0 09F112CC#FF715AFF7FFF7FFD
(1502984870.423844) slcan0 09F113CC#FF7C330000FFFFFF
(1502984870.423848) slcan0 09F119CC#FF715AF3F7D904FF
(1502984870.423851) slcan0 09F10DCC#00FFFF7FE9FBFFFF
(1502984870.427902) slcan0 09F10DCC#FCF8FF7FFF7FFFFF
(1502984870.427921) slcan0 1CFF4FCC#3B9FFFFFFF715AFF
(1502984870.427925) slcan0 1DEFFFCC#40083B9FF0819C51
(1502984870.427927) slcan0 1DEFFFCC#4115FBFFFFFFFFFF
(1502984870.444220) slcan0 09F10DAC#FCF8FF7FE9FBFFFF
(1502984870.463670) slcan0 09F8012B#012C6B1B6D5E36FF
(1502984870.522879) slcan0 09F112CC#FF6D5AFF7FFF7FFD
(1502984870.522902) slcan0 09F113CC#FF4FA1FFFFFFFFFF
(1502984870.522906) slcan0 09F119CC#FF6D5AF1F7D704FF
(1502984870.527579) slcan0 09F10DCC#00FFFF7FE9FBFFFF
(1502984870.527593) slcan0 09F10DCC#FCF8FF7FFF7FFFFF
(1502984870.527596) slcan0 1CFF4FCC#3B9FFFFFFF6D5AFF
(1502984870.544285) slcan0 09F10DAC#FCF8FF7FE9FBFFFF
(1502984870.563613) slcan0 09F8012B#012C6B1B6D5E36FF
(1502984870.596081) slcan0 09F105AC#20153CC01FFF7FFF
(1502984870.596106) slcan0 09F105AC#21FFFFFFFFFFFFFF
(1502984870.596109) slcan0 09F105AC#22FF7FFF7FFF7FFF
(1502984870.596113) slcan0 09F105AC#23FFFFFFFFFFFFFF
(1502984870.613847) slcan0 09F8022B#FF00000006000000
(1502984870.622795) slcan0 09F112CC#FF6C5AFF7FFF7FFD
(1502984870.622815) slcan0 09F113CC#FF6675FFFFFFFFFF
(1502984870.622819) slcan0 09F119CC#FF6C5AEEF7D504FF
(1502984870.626890) slcan0 09F10DCC#00FFFF7FE9FBFFFF
(1502984870.626906) slcan0 09F10DCC#FCF8FF7FFF7FFFFF
(1502984870.626910) slcan0 1CFF4FCC#3B9FFFFFFF6C5AFF
(1502984870.644137) slcan0 09F10DAC#FCF8FF7FE9FBFFFF
(1502984870.663663) slcan0 09F8012B#012C6B1B6D5E36FF
(1502984870.722596) slcan0 09F112CC#FF695AFF7FFF7FFD
(1502984870.722620) slcan0 09F113CC#FF3345FFFFFFFFFF
(1502984870.722624) slcan0 09F119CC#FF695AEDF7D204FF
(1502984870.722628) slcan0 09F10DCC#00FFFF7FE9FBFFFF
(1502984870.728110) slcan0 11F80F2B#E01B12D62E8E0D6D
(1502984870.728131) slcan0 09F10DCC#FCF8FF7FFF7FFFFF
(1502984870.728134) slcan0 18EACCAC#00EE00
(1502984870.728137) slcan0 18EEFFCC#1FEE72E7359650C0
(1502984870.728139) slcan0 1CFF4FCC#3B9FFFFFFF695AFF
(1502984870.733657) slcan0 11F80F2B#E15E36FF022C6B1B
(1502984870.744253) slcan0 11F80F2B#E2CFFFFF05000600
(1502984870.744273) slcan0 09F10DAC#FCF8FF7FF2FBFFFF
(1502984870.757684) slcan0 11F80F2B#E326FFFF007401FF
(1502984870.757704) slcan0 1DEFFF00#C0073B9FF0819000
(1502984870.757708) slcan0 1DEFFF00#C103FFFFFFFFFFFF
(1502984870.757710) slcan0 18EA00AC#00EE00
(1502984870.757713) slcan0 18EEFF00#9DE06FE71C96A0C0
(1502984870.796059) slcan0 09F8012B#012C6B1B6D5E36FF
(1502984870.805462) slcan0 1DFB012B#C01B0455EA220052
(1502984870.813701) slcan0 1DFB012B#C1BC28FFDF36721B
(1502984870.824225) slcan0 09FD0274#00BB017C5FFAFFFF
(1502984870.824243) slcan0 09F112CC#FF645AFF7FFF7FFD
(1502984870.824246) slcan0 1DFB012B#C20170D3E5219F87
(1502984870.824249) slcan0 09F113CC#FF35CEFEFFFFFFFF
(1502984870.830838) slcan0 09F119CC#FF645AEDF7D104FF
(1502984870.830852) slcan0 09F10DCC#00FFFF7FF2FBFFFF
(1502984870.830855) slcan0 09F10DCC#FCF8FF7FFF7FFFFF
(1502984870.830857) slcan0 1CFF4FCC#3B9FFFFFFF645AFF
(1502984870.833372) slcan0 1DFB012B#C308F343700000FF
(1502984870.844914) slcan0 09F105AC#40153CC01FFF7FFF
(1502984870.844931) slcan0 09F105AC#41FFFFFFFFFFFFFF
(1502984870.844935) slcan0 09F105AC#42FF7FFF7FFF7FFF
(1502984870.844937) slcan0 09F105AC#43FFFFFFFFFFFFFF
(1502984870.846915) slcan0 09F10DAC#FCF8FF7FE9FBFFFF
(1502984870.872372) slcan0 0DF50B74#00CA000000FFFFFF
(1502984870.904019) slcan0 09F50374#000F00FFFF00FFFF
(1502984870.904040) slcan0 1CFF1A74#3B9F0E00FFFFFFFF
(1502984870.922202) slcan0 09F112CC#FF605AFF7FFF7FFD
(1502984870.922222) slcan0 09F113CC#FFF784FEFFFFFFFF
(1502984870.922226) slcan0 09F119CC#FF605AEBF7D204FF
(1502984870.922228) slcan0 09F10DCC#00FFFF7FE9FBFFFF
(1502984870.927786) slcan0 09F8012B#122C6B1B5C5E36FF
(1502984870.927806) slcan0 09F10DCC#FCF8FF7FFF7FFFFF
(1502984870.927810) slcan0 1CFF63CC#3B9F0000000002FF
(1502984870.927812) slcan0 15FD0774#00C07774FF7FFFFF
(1502984870.927815) slcan0 1DEFFFCC#600D3B9FF0818456
(1502984870.931835) slcan0 1CFF4FCC#3B9FFFFFFF5F5AFF
(1502984870.931861) slcan0 1DEFFFCC#6155554000FB0205
(1502984870.933841) slcan0 09F8022B#FF00000004000000
(1502984870.944257) slcan0 09F10DAC#FCF8FF7FF2FBFFFF
(1502984870.986647) slcan0 09F50374#000F00FFFF00FFFF
(1502984870.995329) slcan0 1CFF6800#3B9F000000000000
(1502984871.009088) slcan0 15FD0774#00C07774FF7FFFFF
(1502984871.023810) slcan0 09F112CC#FF5D5AFF7FFF7FFD
(1502984871.023832) slcan0 09F113CC#FF2186FEFFFFFFFF
(1502984871.023835) slcan0 09F119CC#FF5D5AE9F7D404FF
(1502984871.023838) slcan0 09F10DCC#00FFFF7FF2FBFFFF
(1502984871.026898) slcan0 09F10DCC#FCF8FF7FFF7FFFFF
(1502984871.026920) slcan0 1DEFFFCC#80093B9FF081AE02
(1502984871.026923) slcan0 1DEFFFCC#81000CA5FFFFFFFF
(1502984871.026926) slcan0 1CFF4FCC#3B9FFFFFFF5D5AFF
(1502984871.026928) slcan0 1DFF64CC#A0073B9FFFFFFF7F
(1502984871.028950) slcan0 1DFF64CC#A1FFFFFFFFFFFFFF
(1502984871.033903) slcan0 09F8012B#122C6B1B5C5E36FF
(1502984871.044258) slcan0 09F10DAC#FCF8FF7FE9FBFFFF
(1502984871.096102) slcan0 09F105AC#60153CC01FFF7FFF
(1502984871.096124) slcan0 09F105AC#61FFFFFFFFFFFFFF
(1502984871.096128) slcan0 09F105AC#62FF7FFF7FFF7FFF
(1502984871.096130) slcan0 09F105AC#63FFFFFFFFFFFFFF
(1502984871.122261) slcan0 09F112CC#FF5B5AFF7FFF7FFD
(1502984871.122282) slcan0 09F113CC#FFB3A0FEFFFFFFFF
(1502984871.122285) slcan0 09F119CC#FF5B5AE8F7D704FF
(1502984871.122287) slcan0 09F10DCC#00FFFF7FE9FBFFFF
(1502984871.126617) slcan0 09F10DCC#FCF8FF7FFF7FFFFF
(1502984871.126632) slcan0 1CFF4FCC#3B9FFFFFFF5B5AFF
(1502984871.133649) slcan0 09F8012B#122C6B1B5C5E36FF
(1502984871.144210) slcan0 09F10DAC#FCF8FF7FE9FBFFFF
(1502984871.183690) slcan0 09F8022B#FF00000004000000
(1502984871.222268) slcan0 09F112CC#FF585AFF7FFF7FFD
(1502984871.222291) slcan0 09F113CC#FFC784FEFFFFFFFF
(1502984871.222295) slcan0 09F119CC#FF585AE7F7DA04FF
(1502984871.222297) slcan0 09F10DCC#00FFFF7FE9FBFFFF
(1502984871.226704) slcan0 09F10DCC#FCF8FF7FFF7FFFFF
(1502984871.226719) slcan0 1CFF4FCC#3B9FFFFFFF575AFF
(1502984871.233765) slcan0 09F8012B#122C6B1B5C5E36FF
(1502984871.244191) slcan0 09F10DAC#FCF8FF7FE9FBFFFF
(1502984871.273064) slcan0 19F51374#C00EFFFFFFFFFFFF
(1502984871.273084) slcan0 19F51374#C11C4B2400790300
(1502984871.273087) slcan0 19F51374#C200FFFFFFFFFFFF
(1502984871.273090) slcan0 1DFF6774#E00B3B9F0300041C
(1502984871.276803) slcan0 1DFF6774#E1C409190909FFFF
(1502984871.276817) slcan0 1DFF6774#000B3B9F0301041C
(1502984871.276820) slcan0 1DFF6774#01C409190909FFFF
(1502984871.276822) slcan0 1DFF6774#200B3B9F0302041C
(1502984871.280119) slcan0 1DFF6774#21C409190909FFFF
(1502984871.313729) slcan0 11F80E2B#401C01603AED0E8A
(1502984871.323896) slcan0 09F112CC#FF565AFF7FFF7FFD
(1502984871.323913) slcan0 09F113CC#FF7A82FEFFFFFFFF
(1502984871.323916) slcan0 09F119CC#FF565AE8F7DD04FF
(1502984871.323919) slcan0 11F80E2B#413445FF10DA811B
(1502984871.327097) slcan0 09F10DCC#00FFFF7FE9FBFFFF
(1502984871.327111) slcan0 09F10DCC#FCF8FF7FFF7FFFFF
(1502984871.327115) slcan0 1CFF4FCC#3B9FFFFFFF565AFF
(1502984871.333430) slcan0 11F80E2B#4290CDEA0000C05E
(1502984871.344306) slcan0 11F80E2B#430065A800000000
(1502984871.344323) slcan0 09F105AC#80153CC01FFF7FFF
(1502984871.344326) slcan0 09F105AC#81FFFFFFFFFFFFFF
(1502984871.344328) slcan0 09F105AC#82FF7FFF7FFF7FFF
(1502984871.347121) slcan0 09F105AC#83FFFFFFFFFFFFFF
(1502984871.347136) slcan0 09F10DAC#FCF8FF7FE9FBFFFF
(1502984871.353569) slcan0 11F80E2B#44FFFFFFFFFFFFFF
(1502984871.373660) slcan0 09F8012B#122C6B1B5C5E36FF
(1502984871.423703) slcan0 09F112CC#FF555AFF7FFF7FFD
(1502984871.423723) slcan0 09F113CC#FFDFB9FEFFFFFFFF
(1502984871.423726) slcan0 09F119CC#FF555AEAF7E004FF
(1502984871.423729) slcan0 09F10DCC#00FFFF7FE9FBFFFF
(1502984871.427964) slcan0 09F10DCC#FCF8FF7FFF7FFFFF
(1502984871.427982) slcan0 1CFF4FCC#3B9FFFFFFF545AFF
(1502984871.427985) slcan0 1DEFFFCC#A0083B9FF0819C51
(1502984871.427987) slcan0 1DEFFFCC#A115FBFFFFFFFFFF
(1502984871.443989) slcan0 09F10DAC#FCF8FF7FE9FBFFFF
(1502984871.473708) slcan0 09F8012B#122C6B1B5C5E36FF
(1502984871.483789) slcan0 09F8022B#FF00000004000000
(1502984871.522912) slcan0 09F112CC#FF535AFF7FFF7FFD
(1502984871.522935) slcan0 09F113CC#FFBFC4FEFFFFFFFF
(1502984871.522938) slcan0 09F119CC#FF535AECF7E604FF
(1502984871.526767) slcan0 09F10DCC#00FFFF7FE9FBFFFF
(1502984871.526787) slcan0 09F10DCC#FCF8FF7FFF7FFFFF
(1502984871.526790) slcan0 1CFF4FCC#3B9FFFFFFF525AFF
(1502984871.544215) slcan0 09F10DAC#FCF8FF7FE9FBFFFF
(1502984871.583973) slcan0 09F8012B#122C6B1B5C5E36FF
(1502984871.596034) slcan0 09F105AC#A0153CC01FFF7FFF
(1502984871.596057) slcan0 09F105AC#A1FFFFFFFFFFFFFF
(1502984871.596060) slcan0 09F105AC#A2FF7FFF7FFF7FFF
(1502984871.596062) slcan0 09F105AC#A3FFFFFFFFFFFFFF
(1502984871.623660) slcan0 09F112CC#FF505AFF7FFF7FFD
(1502984871.623681) slcan0 09F113CC#FF85CEFEFFFFFFFF
(1502984871.623684) slcan0 09F119CC#FF505AEEF7EA04FF
(1502984871.623686) slcan0 09F10DCC#00FFFF7FE9FBFFFF
(1502984871.626810) slcan0 09F10DCC#FCF8FF7FFF7FFFFF
(1502984871.626824) slcan0 1CFF4FCC#3B9FFFFFFF505AFF
(1502984871.644162) slcan0 09F10DAC#FCF8FF7FE9FBFFFF
(1502984871.681647) slcan0 0DEDCC00#A0150000EF01FFFF
(1502984871.681669) slcan0 0DEDCC00#A1FFFFFFFF04013B
(1502984871.681673) slcan0 0DEDCC00#A2070304046C0523
(1502984871.681675) slcan0 0DEDCC00#A350FFFFFFFFFFFF
(1502984871.686150) slcan0 09F8012B#122C6B1B5C5E36FF
(1502984871.686208) slcan0 1DEF00CC#A0093B9F6C235064
(1502984871.686212) slcan0 1DEF00CC#A1646400FFFFFFFF
(1502984871.722183) slcan0 09F112CC#FF515AFF7FFF7FFD
(1502984871.722252) slcan0 09F113CC#FFB938FFFFFFFFFF
(1502984871.722256) slcan0 09F119CC#FF515AF0F7EB04FF
(1502984871.722258) slcan0 09F10DCC#00FFFF7FE9FBFFFF
(1502984871.726791) slcan0 09F10DCC#FCF8FF7FFF7FFFFF
(1502984871.726808) slcan0 1CFF4FCC#3B9FFFFFFF515AFF
(1502984871.733778) slcan0 09F8022B#FF00000004000000
(1502984871.744155) slcan0 09F10DAC#FCF8FF7FF2FBFFFF
(1502984871.783772) slcan0 09F8012B#122C6B1B5C5E36FF
(1502984871.823032) slcan0 09FD0274#00AB015A68FAFFFF
(1502984871.823054) slcan0 09F112CC#FF525AFF7FFF7FFD
(1502984871.824775) slcan0 09F113CC#FF9162FFFFFFFFFF
(1502984871.830637) slcan0 09F119CC#FF525AF2F7ED04FF
(1502984871.830652) slcan0 09F10DCC#00FFFF7FF2FBFFFF
(1502984871.830655) slcan0 09F10DCC#FCF8FF7FFF7FFFFF
(1502984871.830658) slcan0 1CFF4FCC#3B9FFFFFFF525AFF
(1502984871.845025) slcan0 09F105AC#C0153CC01FFF7FFF
(1502984871.845047) slcan0 09F105AC#C1FFFFFFFFFFFFFF
(1502984871.845050) slcan0 09F105AC#C2FF7FFF7FFF7FFF
(1502984871.845052) slcan0 09F105AC#C3FFFFFFFFFFFFFF
(1502984871.847006) slcan0 09F10DAC#FCF8FF7FE9FBFFFF
(1502984871.876022) slcan0 0DF50B74#00CD000000FFFFFF
(1502984871.883819) slcan0 09F8012B#122C6B1B5C5E36FF
(1502984871.922161) slcan0 09F112CC#FF525AFF7FFF7FFD
(1502984871.922186) slcan0 09F113CC#FF088CFFFFFFFFFF
(1502984871.922189) slcan0 09F119CC#FF525AF4F7EE04FF
(1502984871.922192) slcan0 09F10DCC#00FFFF7FE9FBFFFF
(1502984871.928145) slcan0 09F10DCC#FCF8FF7FFF7FFFFF
(1502984871.928167) slcan0 1CFF63CC#3B9F0000000002FF
(1502984871.928170) slcan0 1CFF4FCC#3B9FFFFFFF525AFF
(1502984871.928172) slcan0 1DEFFFCC#C00D3B9FF0818456
(1502984871.928174) slcan0 1DEFFFCC#C155554000FB0205
(1502984871.944218) slcan0 09F10DAC#FCF8FF7FE9FBFFFF
(1502984871.983846) slcan0 09F8012B#122C6B1B5C5E36FF
(1502984871.995221) slcan0 09F8022B#FF00000002000000
(1502984871.995242) slcan0 1CFF6800#3B9F000000000000
(1502984872.024076) slcan0 09F112CC#FF535AFF7FFF7FFD
(1502984872.024099) slcan0 09F113CC#FF7EA8FFFFFFFFFF
(1502984872.024102) slcan0 09F119CC#FF535AF6F7EF04FF
(1502984872.024104) slcan0 09F10DCC#00FFFF7FE9FBFFFF
(1502984872.029356) slcan0 09F50374#000E00FFFF00FFFF
(1502984872.029371) slcan0 09F10DCC#FCF8FF7FFF7FFFFF
(1502984872.029374) slcan0 1CFF1A74#3B9F0E00FFFFFFFF
(1502984872.029380) slcan0 1DEFFFCC#E0093B9FF081AE02
(1502984872.029383) slcan0 1DEFFFCC#E1000CA5FFFFFFFF
(1502984872.033928) slcan0 1CFF4FCC#3B9FFFFFFF535AFF
(1502984872.033942) slcan0 1DFF64CC#C0073B9FFFFFFF7F
(1502984872.033945) slcan0 1DFF64CC#C1FFFFFFFFFFFFFF
(1502984872.044140) slcan0 09F10DAC#FCF8FF7FF2FBFFFF
(1502984872.050538) slcan0 15FD0774#00C07774FF7FFFFF
(1502984872.070023) slcan0 09F50374#000A00FFFF00FFFF
(1502984872.094066) slcan0 09F8012B#122C6B1B5C5E36FF
(1502984872.094086) slcan0 09F105AC#E0153CC01FFF7FFF
(1502984872.094089) slcan0 15FD0774#00C07774FF7FFFFF
(1502984872.094091) slcan0 09F105AC#E1FFFFFFFFFFFFFF
(1502984872.096621) slcan0 09F105AC#E2FF7FFF7FFF7FFF
(1502984872.096636) slcan0 09F105AC#E3FFFFFFFFFFFFFF
(1502984872.123791) slcan0 09F112CC#FF535AFF7FFF7FFD
(1502984872.123808) slcan0 09F113CC#FF86C9FFFFFFFFFF
(1502984872.123811) slcan0 09F119CC#FF535AF7F7EE04FF
(1502984872.123814) slcan0 09F10DCC#00FFFF7FF2FBFFFF
(1502984872.127905) slcan0 09F10DCC#FCF8FF7FFF7FFFFF
(1502984872.127919) slcan0 1DEFFFCC#00073B9FF0819010
(1502984872.127922) slcan0 1DEFFFCC#0105FFFFFFFFFFFF
(1502984872.127925) slcan0 1CFF4FCC#3B9FFFFFFF535AFF
(1502984872.144075) slcan0 09F10DAC#FCF8FF7FE9FBFFFF
(1502984872.193745) slcan0 09F8012B#122C6B1B5C5E36FF
(1502984872.223903) slcan0 09F112CC#FF535AFF7FFF7FFD
(1502984872.223924) slcan0 09F113CC#FFFAD3FFFFFFFFFF
(1502984872.223927) slcan0 09F119CC#FF535AF7F7EC04FF
(1502984872.224068) slcan0 09F10DCC#00FFFF7FE9FBFFFF
(1502984872.226636) slcan0 09F10DCC#FCF8FF7FFF7FFFFF
(1502984872.226650) slcan0 1CFF4FCC#3B9FFFFFFF535AFF
(1502984872.244412) slcan0 09F8022B#FF00000002000000
(1502984872.244432) slcan0 09F10DAC#FCF8FF7FE9FBFFFF
(1502984872.269246) slcan0 19F51374#400EFFFFFFFFFFFF
(1502984872.269267) slcan0 19F51374#411C4B2400790300
(1502984872.269270) slcan0 19F51374#4200FFFFFFFFFFFF
(1502984872.269272) slcan0 1DFF6774#600B3B9F0300041C
(1502984872.274145) slcan0 1DFF6774#61C409190909FFFF
(1502984872.274198) slcan0 1DFF6774#800B3B9F0301041C
(1502984872.274201) slcan0 1DFF6774#81C409190909FFFF
(1502984872.274203) slcan0 1DFF6774#A00B3B9F0302041C
(1502984872.274206) slcan0 1DFF6774#A1C409190909FFFF
(1502984872.293786) slcan0 09F8012B#122C6B1B5C5E36FF
(1502984872.329465) slcan0 09F112CC#FF545AFF7FFF7FFD
(1502984872.329488) slcan0 09F113CC#FF6DFAFFFFFFFFFF
(1502984872.329491) slcan0 09F119CC#FF555AF7F7EA04FF
(1502984872.329494) slcan0 09F10DCC#00FFFF7FE9FBFFFF
(1502984872.329496) slcan0 09F10DCC#FCF8FF7FFF7FFFFF
(1502984872.329499) slcan0 1CFF4FCC#3B9FFFFFFF555AFF
(1502984872.345004) slcan0 09F105AC#00153CC01FFF7FFF
(1502984872.345024) slcan0 09F105AC#01FFFFFFFFFFFFFF
(1502984872.345027) slcan0 09F105AC#02FF7FFF7FFF7FFF
(1502984872.345029) slcan0 09F105AC#03FFFFFFFFFFFFFF
(1502984872.346892) slcan0 09F10DAC#FCF8FF7FF2FBFFFF
(1502984872.356361) slcan0 0DEDACCC#C0140000EF01FFFF
(1502984872.356382) slcan0 0DEDACCC#C1FFFFFFFF04013B
(1502984872.356385) slcan0 0DEDACCC#C2070304045C050F
(1502984872.356388) slcan0 1DEFCCAC#400F3B9F5C0F0201
(1502984872.359023) slcan0 1DEFCCAC#41FF0106FF02FF01
(1502984872.359043) slcan0 1DEFCCAC#4206FFFFFFFFFFFF
(1502984872.393767) slcan0 09F8012B#122C6B1B5C5E36FF
(1502984872.422195) slcan0 09F112CC#FF575AFF7FFF7FFD
(1502984872.422215) slcan0 09F113CC#FF19410000FFFFFF
(1502984872.422218) slcan0 09F119CC#FF575AF7F7E804FF
(1502984872.422220) slcan0 09F10DCC#00FFFF7FF2FBFFFF
(1502984872.424086) slcan0 09F10DCC#FCF8FF7FFF7FFFFF
(1502984872.428050) slcan0 1CFF4FCC#3B9FFFFFFF575AFF
(1502984872.428065) slcan0 1DEFFFCC#20083B9FF0819C51
(1502984872.428068) slcan0 1DEFFFCC#2115FBFFFFFFFFFF
(1502984872.442958) slcan0 09F10DAC#FCF8FF7FF2FBFFFF
(1502984872.496048) slcan0 09F8012B#122C6B1B5C5E36FF
(1502984872.503783) slcan0 09F8022B#FF00000002000000
(1502984872.523269) slcan0 09F112CC#FF5A5AFF7FFF7FFD
(1502984872.523288) slcan0 09F113CC#FF93940000FFFFFF
(1502984872.523292) slcan0 09F119CC#FF5A5AF5F7E604FF
(1502984872.526874) slcan0 09F10DCC#00FFFF7FF2FBFFFF
(1502984872.526898) slcan0 09F10DCC#FCF8FF7FFF7FFFFF
(1502984872.526901) slcan0 1CFF4FCC#3B9FFFFFFF5A5AFF
(1502984872.559885) slcan0 09F10DAC#FCF8FF7FE9FBFFFF
(1502984872.595983) slcan0 09F105AC#20153CC01FFF7FFF
(1502984872.596007) slcan0 09F105AC#21FFFFFFFFFFFFFF
(1502984872.596010) slcan0 09F105AC#22FF7FFF7FFF7FFF
(1502984872.596013) slcan0 09F105AC#23FFFFFFFFFFFFFF
(1502984872.603601) slcan0 09F8012B#122C6B1B5C5E36FF
(1502984872.623507) slcan0 09F112CC#FF5A5AFF7FFF7FFD
(1502984872.623531) slcan0 09F113CC#FF44620000FFFFFF
(1502984872.623535) slcan0 09F119CC#FF5A5AF0F7E304FF
(1502984872.623537) slcan0 09F10DCC#00FFFF7FE9FBFFFF
(1502984872.626676) slcan0 09F10DCC#FCF8FF7FFF7FFFFF
(1502984872.626698) slcan0 1CFF4FCC#3B9FFFFFFF5A5AFF
(1502984872.643820) slcan0 09F10DAC#FCF8FF7FE9FBFFFF
(1502984872.704237) slcan0 09F8012B#122C6B1B5C5E36FF
(1502984872.722178) slcan0 09F112CC#FF5C5AFF7FFF7FFD
(1502984872.722198) slcan0 09F113CC#FF337D0000FFFFFF
(1502984872.722202) slcan0 09F119CC#FF5C5AEDF7E004FF
(1502984872.722204) slcan0 09F10DCC#00FFFF7FE9FBFFFF
(1502984872.726644) slcan0 09F10DCC#FCF8FF7FFF7FFFFF
(1502984872.726658) slcan0 1CFF4FCC#3B9FFFFFFF5C5AFF
(1502984872.744371) slcan0 09F10DAC#FCF8FF7FE9FBFFFF
(1502984872.755263) slcan0 09F8022B#FF00000002000000
(1502984872.755277) slcan0 1DEFFF00#E0073B9FF0819000
(1502984872.755280) slcan0 1DEFFF00#E103FFFFFFFFFFFF
(1502984872.803783) slcan0 09F8012B#122C6B1B5C5E36FF
(1502984872.817338) slcan0 11F80F2B#001B12D62E8E0D5C
(1502984872.824109) slcan0 09F112CC#FF5B5AFF7FFF7FFD
(1502984872.824124) slcan0 09FD0274#004F019354FAFFFF
(1502984872.824127) slcan0 09F113CC#FF57250000FFFFFF
(1502984872.824129) slcan0 11F80F2B#015E36FF122C6B1B
(1502984872.832027) slcan0 09F119CC#FF5B5AEAF7DE04FF
(1502984872.832049) slcan0 09F10DCC#00FFFF7FE9FBFFFF
(1502984872.832053) slcan0 09F10DCC#FCF8FF7FFF7FFFFF
(1502984872.832055) slcan0 1CFF4FCC#3B9FFFFFFF5B5AFF
(1502984872.833770) slcan0 11F80F2B#02D7FFFF00000600
(1502984872.844411) slcan0 11F80F2B#0326FFFF007401FF
(1502984872.844427) slcan0 09F105AC#40153CC01FFF7FFF
(1502984872.844430) slcan0 09F105AC#41FFFFFFFFFFFFFF
(1502984872.844432) slcan0 09F105AC#42FF7FFF7FFF7FFF
(1502984872.847502) slcan0 09F105AC#43FFFFFFFFFFFFFF
(1502984872.847525) slcan0 09F10DAC#FCF8FF7FF2FBFFFF
(1502984872.875673) slcan0 0DF50B74#00CD000000FFFFFF
(1502984872.907737) slcan0 09F50374#001100FFFF00FFFF
(1502984872.907760) slcan0 1CFF1A74#3B9F0E00FFFFFFFF
(1502984872.923740) slcan0 09F112CC#FF5E5AFF7FFF7FFD
(1502984872.923762) slcan0 09F113CC#FFE26F0000FFFFFF
(1502984872.923765) slcan0 09F119CC#FF5E5AE8F7DA04FF
(1502984872.923768) slcan0 09F10DCC#00FFFF7FF2FBFFFF
(1502984872.928124) slcan0 09F10DCC#FCF8FF7FFF7FFFFF
(1502984872.928144) slcan0 1CFF63CC#3B9F0000000002FF
(1502984872.928147) slcan0 1CFF4FCC#3B9FFFFFFF5E5AFF
(1502984872.928150) slcan0 1DEFFFCC#400D3B9FF0818456
(1502984872.928152) slcan0 1DEFFFCC#4155554000FB0205
(1502984872.930203) slcan0 15FD0774#00C07774FF7FFFFF
(1502984872.942882) slcan0 09F8012B#122C6B1B4B5E36FF
(1502984872.945459) slcan0 09F10DAC#FCF8FF7FE9FBFFFF
(1502984872.961345) slcan0 09F50374#000F00FFFF00FFFF
(1502984872.995279) slcan0 1CFF6800#3B9F000000000000
(1502984873.001862) slcan0 15FD0774#00C07774FF7FFFFF
(1502984873.023661) slcan0 09F112CC#FF5D5AFF7FFF7FFD
(1502984873.023684) slcan0 09F113CC#FFB8260000FFFFFF
(1502984873.023688) slcan0 09F119CC#FF5D5AE7F7D704FF
(1502984873.023690) slcan0 09F10DCC#00FFFF7FE9FBFFFF
(1502984873.026743) slcan0 09F10DCC#FCF8FF7FFF7FFFFF
(1502984873.026762) slcan0 1DEFFFCC#60093B9FF081AE02
(1502984873.026765) slcan0 1DEFFFCC#61000CA5FFFFFFFF
(1502984873.026768) slcan0 1CFF4FCC#3B9FFFFFFF5D5AFF
(1502984873.026770) slcan0 1DFF64CC#E0073B9FFFFFFF7F
(1502984873.029539) slcan0 1DFF64CC#E1FFFFFFFFFFFFFF
(1502984873.033677) slcan0 09F8012B#122C6B1B4B5E36FF
(1502984873.044381) slcan0 09F8022B#FF00000002000000
(1502984873.044402) slcan0 09F10DAC#FCF8FF7FF2FBFFFF
(1502984873.096113) slcan0 09F105AC#60153CC01FFF7FFF
(1502984873.096134) slcan0 09F105AC#61FFFFFFFFFFFFFF
(1502984873.096138) slcan0 09F105AC#62FF7FFF7FFF7FFF
(1502984873.096140) slcan0 09F105AC#63FFFFFFFFFFFFFF
(1502984873.122109) slcan0 09F112CC#FF5D5AFF7FFF7FFD
(1502984873.122130) slcan0 09F113CC#FF1BFBFFFFFFFFFF
(1502984873.122134) slcan0 09F119CC#FF5D5AE4F7D304FF
(1502984873.122137) slcan0 09F10DCC#00FFFF7FF2FBFFFF
(1502984873.123999) slcan0 09F10DCC#FCF8FF7FFF7FFFFF
(1502984873.126744) slcan0 1CFF4FCC#3B9FFFFFFF5C5AFF
(1502984873.143749) slcan0 09F10DAC#FCF8FF7FF2FBFFFF
(1502984873.144079) slcan0 09F8012B#122C6B1B4B5E36FF
(1502984873.223595) slcan0 09F112CC#FF5D5AFF7FFF7FFD
(1502984873.223616) slcan0 09F113CC#FF24E2FFFFFFFFFF
(1502984873.223620) slcan0 09F119CC#FF5D5AE5F7D204FF
(1502984873.223623) slcan0 09F10DCC#00FFFF7FF2FBFFFF
(1502984873.228597) slcan0 09F10DCC#FCF8FF7FFF7FFFFF
(1502984873.228618) slcan0 1CFF4FCC#3B9FFFFFFF5D5AFF
(1502984873.243677) slcan0 09F10DAC#FCF8FF7FF2FBFFFF
(1502984873.243700) slcan0 09F8012B#122C6B1B4B5E36FF
(1502984873.266637) slcan0 19F51374#C00EFFFFFFFFFFFF
(1502984873.266657) slcan0 19F51374#C11C4B2400790300
(1502984873.266661) slcan0 19F51374#C200FFFFFFFFFFFF
(1502984873.266663) slcan0 1DFF6774#E00B3B9F0300041C
(1502984873.272976) slcan0 1DFF6774#E1C409190909FFFF
(1502984873.273000) slcan0 1DFF6774#000B3B9F0301041C
(1502984873.273004) slcan0 1DFF6774#01C409190909FFFF
(1502984873.273007) slcan0 1DFF6774#200B3B9F0302041C
(1502984873.273704) slcan0 1DFF6774#21C409190909FFFF
(1502984873.282634) slcan0 0DEDCC00#C0150000EF01FFFF
(1502984873.282658) slcan0 0DEDCC00#C1FFFFFFFF04013B
(1502984873.282662) slcan0 0DEDCC00#C2070304046C051A
(1502984873.282664) slcan0 0DEDCC00#C350FFFFFFFFFFFF
(1502984873.285142) slcan0 1DEF00CC#C00D3B9F6C1A5053
(1502984873.285155) slcan0 1DEF00CC#C10653065306FF7F
(1502984873.293723) slcan0 09F8022B#FF00000002000000
(1502984873.323334) slcan0 09F112CC#FF5C5AFF7FFF7FFD
(1502984873.323378) slcan0 09F113CC#FF32B2FFFFFFFFFF
(1502984873.323383) slcan0 09F119CC#FF5C5AE5F7D004FF
(1502984873.327176) slcan0 09F10DCC#00FFFF7FF2FBFFFF
(1502984873.327198) slcan0 09F10DCC#FCF8FF7FFF7FFFFF
(1502984873.327202) slcan0 1CFF4FCC#3B9FFFFFFF5C5AFF
(1502984873.345540) slcan0 09F8012B#122C6B1B4B5E36FF
(1502984873.345561) slcan0 09F105AC#80153CC01FFF7FFF
(1502984873.345564) slcan0 09F105AC#81FFFFFFFFFFFFFF
(1502984873.345567) slcan0 09F105AC#82FF7FFF7FFF7FFF
(1502984873.347181) slcan0 09F105AC#83FFFFFFFFFFFFFF
(1502984873.347194) slcan0 09F10DAC#FCF8FF7FE9FBFFFF
(1502984873.423635) slcan0 09F112CC#FF5B5AFF7FFF7FFD
(1502984873.423655) slcan0 09F113CC#FF299AFFFFFFFFFF
(1502984873.423659) slcan0 09F119CC#FF5B5AE4F7D004FF
(1502984873.423661) slcan0 09F10DCC#00FFFF7FE9FBFFFF
(1502984873.427924) slcan0 09F10DCC#FCF8FF7FFF7FFFFF
(1502984873.427944) slcan0 1CFF4FCC#3B9FFFFFFF5B5AFF
(1502984873.427948) slcan0 1DEFFFCC#80083B9FF0819C51
(1502984873.427953) slcan0 1DEFFFCC#8115FBFFFFFFFFFF
(1502984873.444054) slcan0 09F10DAC#FCF8FF7FE9FBFFFF
(1502984873.444074) slcan0 09F8012B#122C6B1B4B5E36FF
(1502984873.522730) slcan0 09F112CC#FF5B5AFF7FFF7FFD
(1502984873.522752) slcan0 09F113CC#FF5E9FFFFFFFFFFF
(1502984873.522788) slcan0 09F119CC#FF5B5AE5F7D004FF
(1502984873.526880) slcan0 09F10DCC#00FFFF7FE9FBFFFF
(1502984873.526897) slcan0 09F10DCC#FCF8FF7FFF7FFFFF
(1502984873.526900) slcan0 1CFF4FCC#3B9FFFFFFF5C5AFF
(1502984873.544319) slcan0 09F8012B#122C6B1B4B5E36FF
(1502984873.544334) slcan0 09F10DAC#FCF8FF7FE9FBFFFF
(1502984873.553715) slcan0 09F8022B#FF00000002000000
(1502984873.595623) slcan0 09F105AC#A0153CC01FFF7FFF
(1502984873.595645) slcan0 09F105AC#A1FFFFFFFFFFFFFF
(1502984873.595648) slcan0 09F105AC#A2FF7FFF7FFF7FFF
(1502984873.595650) slcan0 09F105AC#A3FFFFFFFFFFFFFF
(1502984873.622564) slcan0 09F112CC#FF5D5AFF7FFF7FFD
(1502984873.622583) slcan0 09F113CC#FF78CFFFFFFFFFFF
(1502984873.622586) slcan0 09F119CC#FF5D5AE7F7CD04FF
(1502984873.622589) slcan0 09F10DCC#00FFFF7FE9FBFFFF
(1502984873.626963) slcan0 09F10DCC#FCF8FF7FFF7FFFFF
(1502984873.626977) slcan0 1CFF4FCC#3B9FFFFFFF5D5AFF
(1502984873.642850) slcan0 09F10DAC#FCF8FF7FF2FBFFFF
(1502984873.653833) slcan0 09F8012B#122C6B1B4B5E36FF
(1502984873.722217) slcan0 09F112CC#FF605AFF7FFF7FFD
(1502984873.722240) slcan0 09F113CC#FF1B0E0000FFFFFF
(1502984873.722244) slcan0 09F119CC#FF605AE8F7CD04FF
(1502984873.722246) slcan0 09F10DCC#00FFFF7FF2FBFFFF
(1502984873.726692) slcan0 09F10DCC#FCF8FF7FFF7FFFFF
(1502984873.726709) slcan0 1CFF4FCC#3B9FFFFFFF605AFF
(1502984873.742901) slcan0 09F10DAC#FCF8FF7FF2FBFFFF
(1502984873.753865) slcan0 09F8012B#122C6B1B4B5E36FF
(1502984873.803948) slcan0 09F8022B#FF00000002000000
(1502984873.823834) slcan0 09F112CC#FF5E5AFF7FFF7FFD
(1502984873.823850) slcan0 09FD0274#00BB01B65AFAFFFF
(1502984873.823853) slcan0 09F113CC#FFFBD7FFFFFFFFFF
(1502984873.830513) slcan0 09F119CC#FF5E5AE9F7CF04FF
(1502984873.830527) slcan0 09F10DCC#00FFFF7FF2FBFFFF
(1502984873.830530) slcan0 09F10DCC#FCF8FF7FFF7FFFFF
(1502984873.830532) slcan0 1CFF4FCC#3B9FFFFFFF5E5AFF
(1502984873.844634) slcan0 09F105AC#C0153CC01FFF7FFF
(1502984873.844655) slcan0 09F105AC#C1FFFFFFFFFFFFFF
(1502984873.844658) slcan0 09F105AC#C2FF7FFF7FFF7FFF
(1502984873.844660) slcan0 09F105AC#C3FFFFFFFFFFFFFF
(1502984873.846568) slcan0 09F10DAC#FCF8FF7FE9FBFFFF
(1502984873.853864) slcan0 09F8012B#122C6B1B4B5E36FF
(1502984873.880679) slcan0 0DF50B74#00C4000000FFFFFF
(1502984873.909340) slcan0 09F50374#001F00FFFF00FFFF
(1502984873.909364) slcan0 1CFF1A74#3B9F0E00FFFFFFFF
(1502984873.922813) slcan0 09F112CC#FF5E5AFF7FFF7FFD
(1502984873.922833) slcan0 09F113CC#FF5AC0FFFFFFFFFF
(1502984873.922837) slcan0 09F119CC#FF5E5AEAF7CD04FF
(1502984873.926393) slcan0 09F10DCC#00FFFF7FE9FBFFFF
(1502984873.926413) slcan0 09F10DCC#FCF8FF7FFF7FFFFF
(1502984873.926416) slcan0 1CFF63CC#3B9F0000000002FF
(1502984873.926418) slcan0 1CFF4FCC#3B9FFFFFFF5E5AFF
(1502984873.929689) slcan0 1DEFFFCC#A00D3B9FF0818456
(1502984873.929711) slcan0 1DEFFFCC#A155554000FB0205
(1502984873.929714) slcan0 15FD0774#00C0FF73FF7FFFFF
(1502984873.942692) slcan0 09F10DAC#FCF8FF7FF2FBFFFF
(1502984873.953782) slcan0 09F8012B#122C6B1B4B5E36FF
(1502984873.991014) slcan0 09F50374#001F00FFFF00FFFF
(1502984873.994967) slcan0 1CFF6800#3B9F000000000000
(1502984874.013554) slcan0 15FD0774#00C0AF73FF7FFFFF
(1502984874.023680) slcan0 09F112CC#FF5F5AFF7FFF7FFD
(1502984874.023692) slcan0 09F113CC#FF62C9FFFFFFFFFF
(1502984874.023695) slcan0 09F119CC#FF5F5AEAF7CD04FF
(1502984874.023698) slcan0 09F10DCC#00FFFF7FF2FBFFFF
(1502984874.027031) slcan0 09F10DCC#FCF8FF7FFF7FFFFF
(1502984874.027046) slcan0 1DEFFFCC#C0093B9FF081AE02
(1502984874.027049) slcan0 1DEFFFCC#C1000CA5FFFFFFFF
(1502984874.027052) slcan0 1CFF4FCC#3B9FFFFFFF605AFF
(1502984874.027054) slcan0 1DFF64CC#00073B9FFFFFFF7F
(1502984874.028998) slcan0 1DFF64CC#01FFFFFFFFFFFFFF
(1502984874.042863) slcan0 09F10DAC#FCF8FF7FF2FBFFFF
(1502984874.057277) slcan0 09F8012B#122C6B1B4B5E36FF
(1502984874.063939) slcan0 09F8022B#FF00000001000000
(1502984874.095733) slcan0 09F105AC#E0153CC01FFF7FFF
(1502984874.095754) slcan0 09F105AC#E1FFFFFFFFFFFFFF
(1502984874.095757) slcan0 09F105AC#E2FF7FFF7FFF7FFF
(1502984874.095760) slcan0 09F105AC#E3FFFFFFFFFFFFFF
(1502984874.113931) slcan0 1DFB012B#E01B04A0BA220018
(1502984874.122132) slcan0 09F112CC#FF615AFF7FFF7FFD
(1502984874.122147) slcan0 09F113CC#FFDF0A0000FFFFFF
(1502984874.122151) slcan0 09F119CC#FF615AE9F7CC04FF
(1502984874.122153) slcan0 09F10DCC#00FFFF7FF2FBFFFF
(1502984874.127045) slcan0 1DFB012B#E19245FF5E81831B
(1502984874.127060) slcan0 09F10DCC#FCF8FF7FFF7FFFFF
(1502984874.127063) slcan0 1CFF4FCC#3B9FFFFFFF625AFF
(1502984874.133861) slcan0 1DFB012B#E201B06FE6211C88
(1502984874.144418) slcan0 09F10DAC#FCF8FF7FF2FBFFFF
(1502984874.144435) slcan0 1DFB012B#E309F343700000FF
(1502984874.193909) slcan0 09F8012B#122C6B1B4B5E36FF
(1502984874.222284) slcan0 09F112CC#FF635AFF7FFF7FFD
(1502984874.222303) slcan0 09F113CC#FF111F0000FFFFFF
(1502984874.222306) slcan0 09F119CC#FF635AE7F7CC04FF
(1502984874.222309) slcan0 09F10DCC#00FFFF7FF2FBFFFF
(1502984874.226756) slcan0 09F10DCC#FCF8FF7FFF7FFFFF
(1502984874.226777) slcan0 1CFF4FCC#3B9FFFFFFF625AFF
(1502984874.242804) slcan0 09F10DAC#FCF8FF7FF2FBFFFF
(1502984874.254949) slcan0 11F80E2B#601C0190633B1205
(1502984874.263789) slcan0 19F51374#400EFFFFFFFFFFFF
(1502984874.263809) slcan0 11F80E2B#61322AFFF4E97A1B
(1502984874.263812) slcan0 19F51374#411C4B2400790300
(1502984874.263814) slcan0 19F51374#4200FFFFFFFFFFFF
(1502984874.267099) slcan0 1DFF6774#600B3B9F0300041C
(1502984874.267112) slcan0 1DFF6774#61C409190909FFFF
(1502984874.267116) slcan0 1DFF6774#800B3B9F0301041C
(1502984874.267118) slcan0 1DFF6774#81C409190909FFFF
(1502984874.267120) slcan0 1DFF6774#A00B3B9F0302041C
(1502984874.269221) slcan0 1DFF6774#A1C409190909FFFF
(1502984874.273894) slcan0 11F80E2B#62D8F943E8011E88
(1502984874.283914) slcan0 11F80E2B#6301D04200002000
(1502984874.293883) slcan0 11F80E2B#64FFFFFFFFFFFFFF
(1502984874.322152) slcan0 09F112CC#FF655AFF7FFF7FFD
(1502984874.322169) slcan0 09F113CC#FFC9550000FFFFFF
(1502984874.322172) slcan0 09F119CC#FF655AE7F7CB04FF
(1502984874.322174) slcan0 09F10DCC#00FFFF7FF2FBFFFF
(1502984874.326586) slcan0 09F10DCC#FCF8FF7FFF7FFFFF
(1502984874.326601) slcan0 1CFF4FCC#3B9FFFFFFF655AFF
(1502984874.333936) slcan0 09F8012B#122C6B1B4B5E36FF
(1502984874.344648) slcan0 09F105AC#00153CC01FFF7FFF
(1502984874.344663) slcan0 09F105AC#01FFFFFFFFFFFFFF
(1502984874.344666) slcan0 09F105AC#02FF7FFF7FFF7FFF
(1502984874.344668) slcan0 09F105AC#03FFFFFFFFFFFFFF
(1502984874.346561) slcan0 09F10DAC#FCF8FF7FE9FBFFFF
(1502984874.383968) slcan0 09F8022B#FF00000001000000
(1502984874.422215) slcan0 09F112CC#FF675AFF7FFF7FFD
(1502984874.422232) slcan0 09F113CC#FF53650000FFFFFF
(1502984874.422235) slcan0 09F119CC#FF675AE5F7CB04FF
(1502984874.422238) slcan0 09F10DCC#00FFFF7FE9FBFFFF
(1502984874.424181) slcan0 09F10DCC#FCF8FF7FFF7FFFFF
(1502984874.427831) slcan0 1CFF4FCC#3B9FFFFFFF675AFF
(1502984874.427847) slcan0 1DEFFFCC#E0083B9FF0819C51
(1502984874.427850) slcan0 1DEFFFCC#E115FBFFFFFFFFFF
(1502984874.433900) slcan0 09F8012B#122C6B1B4B5E36FF
(1502984874.443603) slcan0 09F10DAC#FCF8FF7FE9FBFFFF
(1502984874.522945) slcan0 09F112CC#FF675AFF7FFF7FFD
(1502984874.522965) slcan0 09F113CC#FF11450000FFFFFF
(1502984874.522968) slcan0 09F119CC#FF675AE3F7CC04FF
(1502984874.526897) slcan0 09F10DCC#00FFFF7FE9FBFFFF
(1502984874.526912) slcan0 09F10DCC#FCF8FF7FFF7FFFFF
(1502984874.526915) slcan0 1CFF4FCC#3B9FFFFFFF675AFF
(1502984874.533958) slcan0 09F8012B#122C6B1B4B5E36FF
(1502984874.543824) slcan0 09F10DAC#FCF8FF7FF2FBFFFF
(1502984874.595838) slcan0 09F105AC#20153CC01FFF7FFF
(1502984874.595857) slcan0 09F105AC#21FFFFFFFFFFFFFF
(1502984874.595860) slcan0 09F105AC#22FF7FFF7FFF7FFF
(1502984874.595862) slcan0 09F105AC#23FFFFFFFFFFFFFF
(1502984874.623337) slcan0 09F112CC#FF665AFF7FFF7FFD
(1502984874.623355) slcan0 09F113CC#FF43F5FFFFFFFFFF
(1502984874.623358) slcan0 09F119CC#FF665AE1F7CC04FF
(1502984874.623360) slcan0 09F10DCC#00FFFF7FF2FBFFFF
(1502984874.626853) slcan0 09F10DCC#FCF8FF7FFF7FFFFF
(1502984874.626867) slcan0 1CFF4FCC#3B9FFFFFFF665AFF
(1502984874.633980) slcan0 09F8012B#122C6B1B4B5E36FF
(1502984874.644320) slcan0 09F10DAC#FCF8FF7FE9FBFFFF
(1502984874.644334) slcan0 09F8022B#FF00000001000000
(1502984874.722163) slcan0 09F112CC#FF665AFF7FFF7FFD
(1502984874.722185) slcan0 09F113CC#FF32E0FFFFFFFFFF
(1502984874.722188) slcan0 09F119CC#FF665ADFF7CB04FF
(1502984874.722191) slcan0 09F10DCC#00FFFF7FE9FBFFFF
(1502984874.726490) slcan0 09F10DCC#FCF8FF7FFF7FFFFF
(1502984874.726506) slcan0 1CFF4FCC#3B9FFFFFFF665AFF
(1502984874.745169) slcan0 09F8012B#122C6B1B4B5E36FF
(1502984874.745190) slcan0 09F10DAC#FCF8FF7FE9FBFFFF
(1502984874.755113) slcan0 1DEFFF00#00073B9FF0819000
(1502984874.755126) slcan0 1DEFFF00#0103FFFFFFFFFFFF
(1502984874.804092) slcan0 11F80F2B#201B12D62E8E0D4C
(1502984874.813963) slcan0 11F80F2B#215E36FF122C6B1B
(1502984874.824770) slcan0 09F112CC#FF675AFF7FFF7FFD
(1502984874.824786) slcan0 09FD0274#00D4018643FAFFFF
(1502984874.824789) slcan0 11F80F2B#22DFFFFF00000600
(1502984874.824792) slcan0 09F113CC#FF71F6FFFFFFFFFF
(1502984874.830849) slcan0 09F119CC#FF665ADCF7CC04FF
(1502984874.830863) slcan0 09F10DCC#00FFFF7FE9FBFFFF
(1502984874.830866) slcan0 09F10DCC#FCF8FF7FFF7FFFFF
(1502984874.830869) slcan0 1CFF4FCC#3B9FFFFFFF665AFF
(1502984874.833901) slcan0 11F80F2B#2326FFFF007401FF
(1502984874.843557) slcan0 09F105AC#40153CC01FFF7FFF
(1502984874.843579) slcan0 09F105AC#41FFFFFFFFFFFFFF
(1502984874.843582) slcan0 09F105AC#42FF7FFF7FFF7FFF
(1502984874.843584) slcan0 09F105AC#43FFFFFFFFFFFFFF
(1502984874.845473) slcan0 09F10DAC#FCF8FF7FE9FBFFFF
(1502984874.870308) slcan0 0DF50B74#00C4000000FFFFFF
(1502984874.873907) slcan0 09F8012B#122C6B1B4B5E36FF
(1502984874.882696) slcan0 0DEDCC00#E0150000EF01FFFF
(1502984874.882711) slcan0 0DEDCC00#E1FFFFFFFF04013B
(1502984874.882714) slcan0 0DEDCC00#E2070304046C0523
(1502984874.882716) slcan0 0DEDCC00#E350FFFFFFFFFFFF
(1502984874.885299) slcan0 1DEF00CC#E0093B9F6C235064
(1502984874.885314) slcan0 1DEF00CC#E1646400FFFFFFFF
(1502984874.904212) slcan0 09F50374#002000FFFF00FFFF
(1502984874.904231) slcan0 1CFF1A74#3B9F0E00FFFFFFFF
(1502984874.922174) slcan0 09F112CC#FF665AFF7FFF7FFD
(1502984874.922191) slcan0 09F113CC#FF21DBFFFFFFFFFF
(1502984874.922194) slcan0 09F119CC#FF665ADBF7CC04FF
(1502984874.922196) slcan0 09F10DCC#00FFFF7FE9FBFFFF
(1502984874.925913) slcan0 09F8022B#FF00000003000000
(1502984874.925928) slcan0 09F10DCC#FCF8FF7FFF7FFFFF
(1502984874.925931) slcan0 15FD0774#00C0FF73FF7FFFFF
(1502984874.925933) slcan0 1CFF63CC#3B9F0000000002FF
(1502984874.932930) slcan0 1CFF4FCC#3B9FFFFFFF665AFF
(1502984874.932945) slcan0 1DEFFFCC#000D3B9FF0818456
(1502984874.932951) slcan0 1DEFFFCC#0155554000FB0205
(1502984874.943719) slcan0 09F10DAC#FCF8FF7FF2FBFFFF
(1502984874.949677) slcan0 09F50374#001F00FFFF00FFFF
(1502984874.973999) slcan0 09F8012B#232C6B1B4B5E36FF
(1502984874.995288) slcan0 1CFF6800#3B9F000000000000
(1502984875.003144) slcan0 15FD0774#00C0AF73FF7FFFFF
(1502984875.023324) slcan0 09F112CC#FF645AFF7FFF7FFD
(1502984875.023342) slcan0 09F113CC#FFA974FFFFFFFFFF
(1502984875.023346) slcan0 09F119CC#FF645AD9F7CB04FF
(1502984875.023348) slcan0 09F10DCC#00FFFF7FF2FBFFFF
(1502984875.026734) slcan0 09F10DCC#FCF8FF7FFF7FFFFF
(1502984875.026752) slcan0 1DEFFFCC#20093B9FF081AE02
(1502984875.026755) slcan0 1DEFFFCC#21000CA5FFFFFFFF
(1502984875.026757) slcan0 1CFF4FCC#3B9FFFFFFF645AFF
(1502984875.026759) slcan0 1DFF64CC#20073B9FFFFFFF7F
(1502984875.028851) slcan0 1DFF64CC#21FFFFFFFFFFFFFF
(1502984875.043760) slcan0 09F10DAC#FCF8FF7FF2FBFFFF
(1502984875.074015) slcan0 09F8012B#232C6B1B4B5E36FF
(1502984875.094641) slcan0 09F105AC#60153CC01FFF7FFF
(1502984875.094662) slcan0 09F105AC#61FFFFFFFFFFFFFF
(1502984875.094666) slcan0 09F105AC#62FF7FFF7FFF7FFF
(1502984875.094668) slcan0 09F105AC#63FFFFFFFFFFFFFF
(1502984875.123742) slcan0 09F112CC#FF625AFF7FFF7FFD
(1502984875.123759) slcan0 09F113CC#FF0955FFFFFFFFFF
(1502984875.123762) slcan0 09F119CC#FF625AD9F7C804FF
(1502984875.123765) slcan0 09F10DCC#00FFFF7FF2FBFFFF
(1502984875.126687) slcan0 09F10DCC#FCF8FF7FFF7FFFFF
(1502984875.126700) slcan0 1CFF4FCC#3B9FFFFFFF635AFF
(1502984875.142704) slcan0 09F10DAC#FCF8FF7FE9FBFFFF
(1502984875.173985) slcan0 09F8012B#232C6B1B4B5E36FF
(1502984875.184002) slcan0 09F8022B#FF00000003000000
(1502984875.224015) slcan0 09F112CC#FF625AFF7FFF7FFD
(1502984875.224032) slcan0 09F113CC#FFA956FFFFFFFFFF
(1502984875.224036) slcan0 09F119CC#FF625AD9F7C904FF
(1502984875.224038) slcan0 09F10DCC#00FFFF7FE9FBFFFF
(1502984875.226686) slcan0 09F10DCC#FCF8FF7FFF7FFFFF
(1502984875.226700) slcan0 1CFF4FCC#3B9FFFFFFF625AFF
(1502984875.243719) slcan0 09F10DAC#FCF8FF7FE9FBFFFF
(1502984875.260735) slcan0 19F51374#C00EFFFFFFFFFFFF
(1502984875.260757) slcan0 19F51374#C11C4B2400790300
(1502984875.260760) slcan0 19F51374#C200FFFFFFFFFFFF
(1502984875.260763) slcan0 1DFF6774#E00B3B9F0300041C
(1502984875.264768) slcan0 1DFF6774#E1C409190909FFFF
(1502984875.264785) slcan0 1DFF6774#000B3B9F0301041C
(1502984875.264788) slcan0 1DFF6774#01C409190909FFFF
(1502984875.264790) slcan0 1DFF6774#200B3B9F0302041C
(1502984875.267644) slcan0 1DFF6774#21C409190909FFFF
(1502984875.284122) slcan0 09F8012B#232C6B1B4B5E36FF
(1502984875.323046) slcan0 09F112CC#FF615AFF7FFF7FFD
(1502984875.323062) slcan0 09F113CC#FF4555FFFFFFFFFF
(1502984875.323065) slcan0 09F119CC#FF615AD9F7C704FF
(1502984875.326948) slcan0 09F10DCC#00FFFF7FE9FBFFFF
(1502984875.326964) slcan0 09F10DCC#FCF8FF7FFF7FFFFF
(1502984875.326967) slcan0 1CFF4FCC#3B9FFFFFFF615AFF
(1502984875.343498) slcan0 09F105AC#80153CC01FFF7FFF
(1502984875.343515) slcan0 09F105AC#81FFFFFFFFFFFFFF
(1502984875.343518) slcan0 09F105AC#82FF7FFF7FFF7FFF
(1502984875.343520) slcan0 09F105AC#83FFFFFFFFFFFFFF
(1502984875.345481) slcan0 09F10DAC#FCF8FF7FF2FBFFFF
(1502984875.383998) slcan0 09F8012B#232C6B1B4B5E36FF
(1502984875.425356) slcan0 09F112CC#FF635AFF7FFF7FFD
(1502984875.425374) slcan0 09F113CC#FF29AFFFFFFFFFFF
(1502984875.425377) slcan0 1DEFFFCC#40083B9FF0819C51
(1502984875.425380) slcan0 09F119CC#FF635AD9F7C504FF
(1502984875.428942) slcan0 1DEFFFCC#4115FBFFFFFFFFFF
(1502984875.428956) slcan0 09F10DCC#00FFFF7FF2FBFFFF
(1502984875.428959) slcan0 09F10DCC#FCF8FF7FFF7FFFFF
(1502984875.428962) slcan0 1CFF4FCC#3B9FFFFFFF635AFF
(1502984875.434136) slcan0 09F8022B#FF00000003000000
(1502984875.442677) slcan0 09F10DAC#FCF8FF7FE9FBFFFF
(1502984875.484073) slcan0 09F8012B#232C6B1B4B5E36FF
(1502984875.522945) slcan0 09F112CC#FF635AFF7FFF7FFD
(1502984875.522964) slcan0 09F113CC#FFE89DFFFFFFFFFF
(1502984875.522968) slcan0 09F119CC#FF635AD8F7C404FF
(1502984875.527025) slcan0 09F10DCC#00FFFF7FE9FBFFFF
(1502984875.527040) slcan0 09F10DCC#FCF8FF7FFF7FFFFF
(1502984875.527043) slcan0 1CFF4FCC#3B9FFFFFFF635AFF
(1502984875.542727) slcan0 09F10DAC#FCF8FF7FF2FBFFFF
(1502984875.584022) slcan0 09F8012B#232C6B1B4B5E36FF
(1502984875.594591) slcan0 09F105AC#A0153CC01FFF7FFF
(1502984875.594608) slcan0 09F105AC#A1FFFFFFFFFFFFFF
(1502984875.594611) slcan0 09F105AC#A2FF7FFF7FFF7FFF
(1502984875.594613) slcan0 09F105AC#A3FFFFFFFFFFFFFF
(1502984875.622783) slcan0 09F112CC#FF635AFF7FFF7FFD
(1502984875.622800) slcan0 09F113CC#FF0DA4FFFFFFFFFF
(1502984875.622803) slcan0 09F119CC#FF635AD8F7C304FF
(1502984875.622805) slcan0 09F10DCC#00FFFF7FF2FBFFFF
(1502984875.626838) slcan0 09F10DCC#FCF8FF7FFF7FFFFF
(1502984875.626852) slcan0 1CFF4FCC#3B9FFFFFFF635AFF
(1502984875.644777) slcan0 09F10DAC#FCF8FF7FE9FBFFFF
(1502984875.684023) slcan0 09F8012B#232C6B1B4B5E36FF
(1502984875.693975) slcan0 09F8022B#FF00000003000000
(1502984875.723820) slcan0 09F112CC#FF645AFF7FFF7FFD
(1502984875.723840) slcan0 09F113CC#FF43BFFFFFFFFFFF
(1502984875.723843) slcan0 09F119CC#FF645AD8F7C504FF
(1502984875.723845) slcan0 09F10DCC#00FFFF7FE9FBFFFF
(1502984875.726706) slcan0 09F10DCC#FCF8FF7FFF7FFFFF
(1502984875.726720) slcan0 1CFF4FCC#3B9FFFFFFF645AFF
(1502984875.743767) slcan0 09F10DAC#FCF8FF7FE9FBFFFF
(1502984875.793993) slcan0 09F8012B#232C6B1B4B5E36FF
(1502984875.824823) slcan0 09F112CC#FF645AFF7FFF7FFD
(1502984875.824849) slcan0 09FD0274#00A101AA58FAFFFF
(1502984875.824857) slcan0 09F113CC#FF87D7FFFFFFFFFF
(1502984875.830848) slcan0 09F119CC#FF655AD7F7C404FF
(1502984875.830866) slcan0 09F10DCC#00FFFF7FE9FBFFFF
(1502984875.830869) slcan0 09F10DCC#FCF8FF7FFF7FFFFF
(1502984875.830871) slcan0 1CFF4FCC#3B9FFFFFFF655AFF
(1502984875.843337) slcan0 09F105AC#C0153CC01FFF7FFF
(1502984875.843359) slcan0 09F105AC#C1FFFFFFFFFFFFFF
(1502984875.843362) slcan0 09F105AC#C2FF7FFF7FFF7FFF
(1502984875.843365) slcan0 09F105AC#C3FFFFFFFFFFFFFF
(1502984875.845309) slcan0 09F10DAC#FCF8FF7FE9FBFFFF
(1502984875.871906) slcan0 0DF50B74#00C4000000FFFFFF
(1502984875.894027) slcan0 09F8012B#232C6B1B4B5E36FF
(1502984875.900420) slcan0 09F50374#001A00FFFF00FFFF
(1502984875.900437) slcan0 1CFF1A74#3B9F0E00FFFFFFFF
(1502984875.920416) slcan0 15FD0774#00C0FF73FF7FFFFF
(1502984875.923945) slcan0 09F112CC#FF655AFF7FFF7FFD
(1502984875.923961) slcan0 09F113CC#FF52ECFFFFFFFFFF
(1502984875.923964) slcan0 09F119CC#FF655AD7F7C304FF
(1502984875.923966) slcan0 09F10DCC#00FFFF7FE9FBFFFF
(1502984875.928420) slcan0 09F10DCC#FCF8FF7FFF7FFFFF
(1502984875.928434) slcan0 1CFF63CC#3B9F0000000002FF
(1502984875.928437) slcan0 1DEFFFCC#600D3B9FF0818456
(1502984875.928439) slcan0 1DEFFFCC#6155554000FB0205
(1502984875.928441) slcan0 1CFF4FCC#3B9FFFFFFF655AFF
(1502984875.944204) slcan0 09F10DAC#FCF8FF7FE9FBFFFF
(1502984875.944219) slcan0 09F8022B#FF00000001000000
(1502984875.947178) slcan0 09F50374#001A00FFFF00FFFF
(1502984875.995548) slcan0 09F8012B#232C6B1B4B5E36FF
(1502984875.995570) slcan0 1CFF6800#3B9F000000000000
(1502984876.000434) slcan0 15FD0774#00C0AF73FF7FFFFF
(1502984876.022204) slcan0 09F112CC#FF665AFF7FFF7FFD
(1502984876.022220) slcan0 09F113CC#FFB9FDFFFFFFFFFF
(1502984876.022223) slcan0 09F119CC#FF665AD6F7C404FF
(1502984876.022226) slcan0 09F10DCC#00FFFF7FE9FBFFFF
(1502984876.026791) slcan0 09F10DCC#FCF8FF7FFF7FFFFF
(1502984876.026805) slcan0 1DEFFFCC#80093B9FF081AE02
(1502984876.026809) slcan0 1DEFFFCC#81000CA5FFFFFFFF
(1502984876.026811) slcan0 1CFF4FCC#3B9FFFFFFF675AFF
(1502984876.026813) slcan0 1DFF64CC#40073B9FFFFFFF7F
(1502984876.028941) slcan0 1DFF64CC#41FFFFFFFFFFFFFF
(1502984876.045393) slcan0 09F10DAC#FCF8FF7FF2FBFFFF
(1502984876.094024) slcan0 09F105AC#E0153CC01FFF7FFF
(1502984876.094045) slcan0 09F8012B#232C6B1B4B5E36FF
(1502984876.094048) slcan0 09F105AC#E1FFFFFFFFFFFFFF
(1502984876.094050) slcan0 09F105AC#E2FF7FFF7FFF7FFF
(1502984876.095964) slcan0 09F105AC#E3FFFFFFFFFFFFFF
(1502984876.122228) slcan0 09F112CC#FF695AFF7FFF7FFD
(1502984876.122247) slcan0 09F113CC#FFDE580000FFFFFF
(1502984876.122251) slcan0 09F119CC#FF695AD7F7C404FF
(1502984876.122253) slcan0 09F10DCC#00FFFF7FF2FBFFFF
(1502984876.126768) slcan0 09F10DCC#FCF8FF7FFF7FFFFF
(1502984876.126783) slcan0 1CFF4FCC#3B9FFFFFFF6A5AFF
(1502984876.144590) slcan0 09F10DAC#FCF8FF7FE9FBFFFF
(1502984876.194085) slcan0 09F8012B#232C6B1B4B5E36FF
(1502984876.204081) slcan0 09F8022B#FF00000001000000
(1502984876.222252) slcan0 09F112CC#FF6C5AFF7FFF7FFD
(1502984876.222332) slcan0 09F113CC#FFB9960000FFFFFF
(1502984876.222338) slcan0 09F119CC#FF6C5AD7F7C604FF
(1502984876.222341) slcan0 09F10DCC#00FFFF7FE9FBFFFF
(1502984876.224093) slcan0 09F10DCC#FCF8FF7FFF7FFFFF
(1502984876.227719) slcan0 1CFF4FCC#3B9FFFFFFF6D5AFF
(1502984876.244670) slcan0 09F10DAC#FCF8FF7FE9FBFFFF
(1502984876.257705) slcan0 19F51374#400EFFFFFFFFFFFF
(1502984876.257723) slcan0 19F51374#411C4B2400790300
(1502984876.257726) slcan0 19F51374#4200FFFFFFFFFFFF
(1502984876.257728) slcan0 1DFF6774#600B3B9F0300041C
(1502984876.261689) slcan0 1DFF6774#61C409190909FFFF
(1502984876.261701) slcan0 1DFF6774#800B3B9F0301041C
(1502984876.261704) slcan0 1DFF6774#81C409190909FFFF
(1502984876.261706) slcan0 1DFF6774#A00B3B9F0302041C
(1502984876.264691) slcan0 1DFF6774#A1C409190909FFFF
(1502984876.304085) slcan0 09F8012B#232C6B1B4B5E36FF
(1502984876.322913) slcan0 09F112CC#FF6F5AFF7FFF7FFD
(1502984876.322929) slcan0 09F113CC#FF56BC0000FFFFFF
(1502984876.322933) slcan0 09F119CC#FF6F5AD5F7C804FF
(1502984876.326918) slcan0 09F10DCC#00FFFF7FE9FBFFFF
(1502984876.326931) slcan0 09F10DCC#FCF8FF7FFF7FFFFF
(1502984876.326935) slcan0 1CFF4FCC#3B9FFFFFFF705AFF
(1502984876.343226) slcan0 09F105AC#00153CC01FFF7FFF
(1502984876.343248) slcan0 09F105AC#01FFFFFFFFFFFFFF
(1502984876.343251) slcan0 09F105AC#02FF7FFF7FFF7FFF
(1502984876.343253) slcan0 09F105AC#03FFFFFFFFFFFFFF
(1502984876.345312) slcan0 09F10DAC#FCF8FF7FF2FBFFFF
(1502984876.404070) slcan0 09F8012B#232C6B1B4B5E36FF
(1502984876.423836) slcan0 09F112CC#FF6F5AFF7FFF7FFD
(1502984876.423856) slcan0 09F113CC#FF86600000FFFFFF
(1502984876.423859) slcan0 09F119CC#FF6F5AD7F7CC04FF
(1502984876.423861) slcan0 09F10DCC#00FFFF7FF2FBFFFF
(1502984876.428031) slcan0 09F10DCC#FCF8FF7FFF7FFFFF
(1502984876.428044) slcan0 1CFF4FCC#3B9FFFFFFF6F5AFF
(1502984876.428048) slcan0 1DEFFFCC#A0083B9FF0819C51
(1502984876.428050) slcan0 1DEFFFCC#A115FBFFFFFFFFFF
(1502984876.443588) slcan0 09F10DAC#FCF8FF7FE9FBFFFF
(1502984876.454004) slcan0 09F8022B#FF00000001000000
(1502984876.482818) slcan0 0DEDCC00#00150000EF01FFFF
(1502984876.482839) slcan0 0DEDCC00#01FFFFFFFF04013B
(1502984876.482842) slcan0 0DEDCC00#02070304046C051A
(1502984876.482844) slcan0 0DEDCC00#0350FFFFFFFFFFFF
(1502984876.486306) slcan0 1DEF00CC#000D3B9F6C1A5053
(1502984876.486323) slcan0 1DEF00CC#010653065306FF7F
(1502984876.504108) slcan0 09F8012B#232C6B1B4B5E36FF
(1502984876.522937) slcan0 09F112CC#FF715AFF7FFF7FFD
(1502984876.522956) slcan0 09F113CC#FF67640000FFFFFF
(1502984876.522959) slcan0 09F119CC#FF715AD6F7CF04FF
(1502984876.526959) slcan0 09F10DCC#00FFFF7FE9FBFFFF
(1502984876.526973) slcan0 09F10DCC#FCF8FF7FFF7FFFFF
(1502984876.526976) slcan0 1CFF4FCC#3B9FFFFFFF705AFF
(1502984876.542567) slcan0 09F10DAC#FCF8FF7FF2FBFFFF
(1502984876.595534) slcan0 09F105AC#20153CC01FFF7FFF
(1502984876.595556) slcan0 09F105AC#21FFFFFFFFFFFFFF
(1502984876.595559) slcan0 09F105AC#22FF7FFF7FFF7FFF
(1502984876.595562) slcan0 09F105AC#23FFFFFFFFFFFFFF
(1502984876.604389) slcan0 09F8012B#232C6B1B4B5E36FF
(1502984876.623384) slcan0 09F112CC#FF705AFF7FFF7FFD
(1502984876.623400) slcan0 09F113CC#FF7F220000FFFFFF
(1502984876.623404) slcan0 09F119CC#FF705AD6F7D404FF
(1502984876.623406) slcan0 09F10DCC#00FFFF7FF2FBFFFF
(1502984876.626863) slcan0 09F10DCC#FCF8FF7FFF7FFFFF
(1502984876.626878) slcan0 1CFF4FCC#3B9FFFFFFF705AFF
(1502984876.644519) slcan0 09F10DAC#FCF8FF7FE9FBFFFF
(1502984876.704162) slcan0 09F8012B#232C6B1B4B5E36FF
(1502984876.715538) slcan0 09F8022B#FF00000001000000
(1502984876.722898) slcan0 09F112CC#FF6E5AFF7FFF7FFD
(1502984876.722921) slcan0 09F113CC#FF4DD8FFFFFFFFFF
(1502984876.722924) slcan0 09F119CC#FF6E5AD6F7D604FF
(1502984876.722926) slcan0 09F10DCC#00FFFF7FE9FBFFFF
(1502984876.726571) slcan0 09F10DCC#FCF8FF7FFF7FFFFF
(1502984876.726588) slcan0 1CFF4FCC#3B9FFFFFFF6E5AFF
(1502984876.744491) slcan0 09F10DAC#FCF8FF7FE9FBFFFF
(1502984876.754866) slcan0 1DEFFF00#20073B9FF0819000
(1502984876.754881) slcan0 1DEFFF00#2103FFFFFFFFFFFF
(1502984876.805936) slcan0 11F80F2B#401B12D62E8E0D4C
(1502984876.814082) slcan0 11F80F2B#415E36FF232C6B1B
(1502984876.824913) slcan0 09F112CC#FF6E5AFF7FFF7FFD
(1502984876.824930) slcan0 09F113CC#FF21B7FFFFFFFFFF
(1502984876.824933) slcan0 09FD0274#009701DA60FAFFFF
(1502984876.824936) slcan0 11F80F2B#42E7FFFF00000600
(1502984876.831022) slcan0 09F119CC#FF6E5AD8F7DA04FF
(1502984876.831038) slcan0 09F10DCC#00FFFF7FE9FBFFFF
(1502984876.831041) slcan0 09F10DCC#FCF8FF7FFF7FFFFF
(1502984876.831043) slcan0 1CFF4FCC#3B9FFFFFFF6E5AFF
(1502984876.834150) slcan0 11F80F2B#4326FFFF007401FF
(1502984876.843844) slcan0 09F105AC#40153CC01FFF7FFF
(1502984876.843858) slcan0 09F105AC#41FFFFFFFFFFFFFF
(1502984876.843861) slcan0 09F8012B#232C6B1B4B5E36FF
(1502984876.843863) slcan0 09F105AC#42FF7FFF7FFF7FFF
(1502984876.846922) slcan0 09F105AC#43FFFFFFFFFFFFFF
(1502984876.846942) slcan0 09F10DAC#FCF8FF7FE9FBFFFF
(1502984876.875480) slcan0 0DF50B74#00C4000000FFFFFF
(1502984876.923934) slcan0 09F112CC#FF6B5AFF7FFF7FFD
(1502984876.923951) slcan0 09F113CC#FF033AFFFFFFFFFF
(1502984876.923954) slcan0 09F119CC#FF6B5AD8F7DF04FF
(1502984876.923957) slcan0 09F10DCC#00FFFF7FE9FBFFFF
(1502984876.928266) slcan0 09F10DCC#FCF8FF7FFF7FFFFF
(1502984876.928281) slcan0 1CFF63CC#3B9F0000000002FF
(1502984876.928285) slcan0 1CFF4FCC#3B9FFFFFFF6A5AFF
(1502984876.928287) slcan0 1DEFFFCC#C00D3B9FF0818456
(1502984876.928289) slcan0 1DEFFFCC#C155554000FB0205
(1502984876.944196) slcan0 09F10DAC#FCF8FF7FF2FBFFFF
(1502984876.944212) slcan0 09F8012B#232C6B1B3A5E36FF
(1502984876.995620) slcan0 09F50374#000E00FFFF00FFFF
(1502984876.995644) slcan0 1CFF1A74#3B9F0E00FFFFFFFF
(1502984876.995647) slcan0 09F8022B#FF00000001000000
(1502984876.995649) slcan0 1CFF6800#3B9F000000000000
(1502984877.012260) slcan0 15FD0774#00C0FF73FF7FFFFF
(1502984877.023339) slcan0 09F112CC#FF685AFF7FFF7FFD
(1502984877.023356) slcan0 09F113CC#FF55FCFEFFFFFFFF
(1502984877.023359) slcan0 09F119CC#FF685AD8F7E404FF
(1502984877.023361) slcan0 09F10DCC#00FFFF7FF2FBFFFF
(1502984877.026902) slcan0 09F10DCC#FCF8FF7FFF7FFFFF
(1502984877.026916) slcan0 1DEFFFCC#E0093B9FF081AE02
(1502984877.026919) slcan0 1DEFFFCC#E1000CA5FFFFFFFF
(1502984877.026922) slcan0 1CFF4FCC#3B9FFFFFFF685AFF
(1502984877.026924) slcan0 1DFF64CC#60073B9FFFFFFF7F
(1502984877.028971) slcan0 1DFF64CC#61FFFFFFFFFFFFFF
(1502984877.036685) slcan0 09F50374#000A00FFFF00FFFF
(1502984877.044154) slcan0 09F10DAC#FCF8FF7FF2FBFFFF
(1502984877.044168) slcan0 09F8012B#232C6B1B3A5E36FF
(1502984877.079752) slcan0 15FD0774#00C0AF73FF7FFFFF
(1502984877.094366) slcan0 09F105AC#60153CC01FFF7FFF
(1502984877.094387) slcan0 09F105AC#61FFFFFFFFFFFFFF
(1502984877.094390) slcan0 09F105AC#62FF7FFF7FFF7FFF
(1502984877.094393) slcan0 09F105AC#63FFFFFFFFFFFFFF
(1502984877.122209) slcan0 09F112CC#FF665AFF7FFF7FFD
(1502984877.122226) slcan0 09F113CC#FF6CD5FEFFFFFFFF
(1502984877.122229) slcan0 09F119CC#FF665AD9F7EA04FF
(1502984877.122231) slcan0 09F10DCC#00FFFF7FF2FBFFFF
(1502984877.126745) slcan0 09F10DCC#FCF8FF7FFF7FFFFF
(1502984877.126759) slcan0 1CFF4FCC#3B9FFFFFFF655AFF
(1502984877.144741) slcan0 09F8012B#232C6B1B3A5E36FF
(1502984877.144758) slcan0 09F10DAC#FCF8FF7FE9FBFFFF
(1502984877.222498) slcan0 09F112CC#FF635AFF7FFF7FFD
(1502984877.222520) slcan0 09F113CC#FF94C1FEFFFFFFFF
(1502984877.222523) slcan0 09F119CC#FF635ADBF7F104FF
(1502984877.222526) slcan0 09F10DCC#00FFFF7FE9FBFFFF
(1502984877.226747) slcan0 09F10DCC#FCF8FF7FFF7FFFFF
(1502984877.226763) slcan0 1CFF4FCC#3B9FFFFFFF635AFF
(1502984877.244624) slcan0 09F8012B#232C6B1B3A5E36FF
(1502984877.244645) slcan0 09F10DAC#FCF8FF7FE9FBFFFF
(1502984877.254501) slcan0 09F8022B#FF00000001000000
(1502984877.254517) slcan0 19F51374#C00EFFFFFFFFFFFF
(1502984877.254520) slcan0 19F51374#C11C4B2400790300
(1502984877.254522) slcan0 19F51374#C200FFFFFFFFFFFF
(1502984877.257636) slcan0 1DFF6774#E00B3B9F0300041C
(1502984877.257652) slcan0 1DFF6774#E1C409190909FFFF
(1502984877.257655) slcan0 1DFF6774#000B3B9F0301041C
(1502984877.257658) slcan0 1DFF6774#01C409190909FFFF
(1502984877.257660) slcan0 1DFF6774#200B3B9F0302041C
(1502984877.259599) slcan0 1DFF6774#21C409190909FFFF
(1502984877.323144) slcan0 09F112CC#FF5F5AFF7FFF7FFD
(1502984877.323165) slcan0 09F113CC#FF9368FEFFFFFFFF
(1502984877.323168) slcan0 09F119CC#FF5F5ADDF7F804FF
(1502984877.326924) slcan0 09F10DCC#00FFFF7FE9FBFFFF
(1502984877.326941) slcan0 09F10DCC#FCF8FF7FFF7FFFFF
(1502984877.326944) slcan0 1CFF4FCC#3B9FFFFFFF5E5AFF
(1502984877.343416) slcan0 09F105AC#80153CC01FFF7FFF
(1502984877.343433) slcan0 09F105AC#81FFFFFFFFFFFFFF
(1502984877.343436) slcan0 09F105AC#82FF7FFF7FFF7FFF
(1502984877.343439) slcan0 09F105AC#83FFFFFFFFFFFFFF
(1502984877.345439) slcan0 09F10DAC#FCF8FF7FE9FBFFFF
(1502984877.354079) slcan0 09F8012B#232C6B1B3A5E36FF
(1502984877.406796) slcan0 0DEDACCC#E0140000EF01FFFF
(1502984877.406814) slcan0 0DEDACCC#E1FFFFFFFF04013B
(1502984877.406818) slcan0 0DEDACCC#E2070304045C050F
(1502984877.406820) slcan0 1DEFCCAC#600F3B9F5C0F0201
(1502984877.409414) slcan0 1DEFCCAC#61FF0106FF02FF01
(1502984877.409429) slcan0 1DEFCCAC#6206FFFFFFFFFFFF
(1502984877.422130) slcan0 09F112CC#FF5D5AFF7FFF7FFD
(1502984877.422200) slcan0 09F113CC#FFED7EFEFFFFFFFF
(1502984877.422207) slcan0 09F119CC#FF5D5ADEF7FD04FF
(1502984877.422210) slcan0 09F10DCC#00FFFF7FE9FBFFFF
(1502984877.424222) slcan0 09F10DCC#FCF8FF7FFF7FFFFF
(1502984877.428131) slcan0 1CFF4FCC#3B9FFFFFFF5C5AFF
(1502984877.428151) slcan0 1DEFFFCC#00083B9FF0819C51
(1502984877.428154) slcan0 1DEFFFCC#0115FBFFFFFFFFFF
(1502984877.443464) slcan0 09F10DAC#FCF8FF7FE9FBFFFF
(1502984877.454238) slcan0 09F8012B#232C6B1B3A5E36FF
(1502984877.504211) slcan0 09F8022B#FF00000001000000
(1502984877.522956) slcan0 09F112CC#FF5A5AFF7FFF7FFD
(1502984877.522971) slcan0 09F113CC#FF7F82FEFFFFFFFF
(1502984877.522974) slcan0 09F119CC#FF5A5AE0F70105FF
(1502984877.526928) slcan0 09F10DCC#00FFFF7FE9FBFFFF
(1502984877.526942) slcan0 09F10DCC#FCF8FF7FFF7FFFFF
(1502984877.526945) slcan0 1CFF4FCC#3B9FFFFFFF595AFF
(1502984877.542504) slcan0 09F10DAC#FCF8FF7FE9FBFFFF
(1502984877.554205) slcan0 09F8012B#232C6B1B3A5E36FF
(1502984877.595321) slcan0 09F105AC#A0153CC01FFF7FFF
(1502984877.595337) slcan0 09F105AC#A1FFFFFFFFFFFFFF
(1502984877.595340) slcan0 09F105AC#A2FF7FFF7FFF7FFF
(1502984877.595342) slcan0 09F105AC#A3FFFFFFFFFFFFFF
(1502984877.623379) slcan0 09F112CC#FF575AFF7FFF7FFD
(1502984877.623397) slcan0 09F113CC#FFE088FEFFFFFFFF
(1502984877.623400) slcan0 09F119CC#FF575AE3F70405FF
(1502984877.623403) slcan0 09F10DCC#00FFFF7FE9FBFFFF
(1502984877.626872) slcan0 09F10DCC#FCF8FF7FFF7FFFFF
(1502984877.626886) slcan0 1CFF4FCC#3B9FFFFFFF575AFF
(1502984877.644301) slcan0 09F10DAC#FCF8FF7FE9FBFFFF
(1502984877.654149) slcan0 09F8012B#232C6B1B3A5E36FF
(1502984877.723881) slcan0 09F112CC#FF555AFF7FFF7FFD
(1502984877.723904) slcan0 09F113CC#FF62ABFEFFFFFFFF
(1502984877.723907) slcan0 09F119CC#FF555AE6F70505FF
(1502984877.723910) slcan0 09F10DCC#00FFFF7FE9FBFFFF
(1502984877.726728) slcan0 09F10DCC#FCF8FF7FFF7FFFFF
(1502984877.726741) slcan0 1CFF4FCC#3B9FFFFFFF555AFF
(1502984877.743431) slcan0 09F10DAC#FCF8FF7FE9FBFFFF
(1502984877.754283) slcan0 09F8012B#232C6B1B3A5E36FF
(1502984877.764337) slcan0 09F8022B#FF00000001000000
(1502984877.824411) slcan0 09F112CC#FF555AFF7FFF7FFD
(1502984877.824433) slcan0 09F113CC#FF5506FFFFFFFFFF
(1502984877.824436) slcan0 09FD0274#0068017F7DFAFFFF
(1502984877.830998) slcan0 09F119CC#FF555AE4F70505FF
(1502984877.831012) slcan0 09F10DCC#00FFFF7FE9FBFFFF
(1502984877.831015) slcan0 09F10DCC#FCF8FF7FFF7FFFFF
(1502984877.831017) slcan0 1CFF4FCC#3B9FFFFFFF555AFF
(1502984877.844341) slcan0 09F105AC#C0153CC01FFF7FFF
(1502984877.844357) slcan0 09F105AC#C1FFFFFFFFFFFFFF
(1502984877.844360) slcan0 09F105AC#C2FF7FFF7FFF7FFF
(1502984877.844362) slcan0 09F105AC#C3FFFFFFFFFFFFFF
(1502984877.846293) slcan0 09F10DAC#FCF8FF7FE9FBFFFF
(1502984877.864380) slcan0 09F8012B#232C6B1B3A5E36FF
(1502984877.877901) slcan0 0DF50B74#00CA000000FFFFFF
(1502984877.908725) slcan0 09F50374#000000FFFF00FFFF
(1502984877.908747) slcan0 1CFF1A74#3B9F0E00FFFFFFFF
(1502984877.922963) slcan0 09F112CC#FF555AFF7FFF7FFD
(1502984877.922979) slcan0 09F113CC#FFD938FFFFFFFFFF
(1502984877.922982) slcan0 09F119CC#FF555AE4F70305FF
(1502984877.926117) slcan0 09F10DCC#00FFFF7FE9FBFFFF
(1502984877.926130) slcan0 09F10DCC#FCF8FF7FFF7FFFFF
(1502984877.926134) slcan0 1CFF63CC#3B9F0000000002FF
(1502984877.926136) slcan0 1CFF4FCC#3B9FFFFFFF565AFF
(1502984877.928748) slcan0 1DEFFFCC#200D3B9FF0818456
(1502984877.928763) slcan0 1DEFFFCC#2155554000FB0205
(1502984877.931836) slcan0 15FD0774#00C0FF73FF7FFFFF
(1502984877.943423) slcan0 09F10DAC#FCF8FF7FE9FBFFFF
(1502984877.964220) slcan0 09F8012B#232C6B1B3A5E36FF
(1502984877.995404) slcan0 09F50374#000000FFFF00FFFF
(1502984877.995426) slcan0 1CFF6800#3B9F000000000000
(1502984878.015814) slcan0 09F8022B#FF00000002000000
(1502984878.015831) slcan0 15FD0774#00C0AF73FF7FFFFF
(1502984878.023491) slcan0 09F112CC#FF575AFF7FFF7FFD
(1502984878.023514) slcan0 09F113CC#FF95B7FFFFFFFFFF
(1502984878.023518) slcan0 09F119CC#FF575AE6F70105FF
(1502984878.025805) slcan0 09F10DCC#00FFFF7FE9FBFFFF
(1502984878.025826) slcan0 09F10DCC#FCF8FF7FFF7FFFFF
(1502984878.025830) slcan0 1DEFFFCC#40093B9FF081AE02
(1502984878.025832) slcan0 1DEFFFCC#41000CA5FFFFFFFF
(1502984878.029122) slcan0 1CFF4FCC#3B9FFFFFFF575AFF
(1502984878.029144) slcan0 1DFF64CC#80073B9FFFFFFF7F
(1502984878.029148) slcan0 1DFF64CC#81FFFFFFFFFFFFFF
(1502984878.043346) slcan0 09F10DAC#FCF8FF7FE9FBFFFF
(1502984878.064204) slcan0 09F8012B#232C6B1B3A5E36FF
(1502984878.083738) slcan0 0DEDCC00#20150000EF01FFFF
(1502984878.083756) slcan0 0DEDCC00#21FFFFFFFF04013B
(1502984878.083759) slcan0 0DEDCC00#22070304046C0523
(1502984878.083761) slcan0 0DEDCC00#2350FFFFFFFFFFFF
(1502984878.086350) slcan0 1DEF00CC#20093B9F6C235064
(1502984878.086364) slcan0 1DEF00CC#21646400FFFFFFFF
(1502984878.095772) slcan0 09F105AC#E0153CC01FFF7FFF
(1502984878.095791) slcan0 09F105AC#E1FFFFFFFFFFFFFF
(1502984878.095794) slcan0 09F105AC#E2FF7FFF7FFF7FFF
(1502984878.095796) slcan0 09F105AC#E3FFFFFFFFFFFFFF
(1502984878.122229) slcan0 09F112CC#FF5B5AFF7FFF7FFD
(1502984878.122246) slcan0 09F113CC#FF304A0000FFFFFF
(1502984878.122249) slcan0 09F119CC#FF5B5AE5F7FE04FF
(1502984878.122251) slcan0 09F10DCC#00FFFF7FE9FBFFFF
(1502984878.126768) slcan0 09F10DCC#FCF8FF7FFF7FFFFF
(1502984878.126783) slcan0 1CFF4FCC#3B9FFFFFFF5C5AFF
(1502984878.144298) slcan0 09F10DAC#FCF8FF7FF2FBFFFF
(1502984878.164209) slcan0 09F8012B#232C6B1B3A5E36FF
(1502984878.223824) slcan0 09F112CC#FF5F5AFF7FFF7FFD
(1502984878.223844) slcan0 09F113CC#FF38A40000FFFFFF
(1502984878.223848) slcan0 09F119CC#FF5F5AE4F7FA04FF
(1502984878.223850) slcan0 09F10DCC#00FFFF7FF2FBFFFF
(1502984878.226707) slcan0 09F10DCC#FCF8FF7FFF7FFFFF
(1502984878.226721) slcan0 1CFF4FCC#3B9FFFFFFF5F5AFF
(1502984878.243420) slcan0 09F10DAC#FCF8FF7FE9FBFFFF
(1502984878.251450) slcan0 19F51374#400EFFFFFFFFFFFF
(1502984878.251464) slcan0 19F51374#411C4B2400790300
(1502984878.251467) slcan0 19F51374#4200FFFFFFFFFFFF
(1502984878.251470) slcan0 1DFF6774#600B3B9F0300041C
(1502984878.255503) slcan0 1DFF6774#61C409190909FFFF
(1502984878.255522) slcan0 1DFF6774#800B3B9F0301041C
(1502984878.255525) slcan0 1DFF6774#81C409190909FFFF
(1502984878.255527) slcan0 1DFF6774#A00B3B9F0302041C
(1502984878.258494) slcan0 1DFF6774#A1C409190909FFFF
(1502984878.264256) slcan0 09F8012B#232C6B1B3A5E36FF
(1502984878.274255) slcan0 09F8022B#FF00000002000000
(1502984878.323085) slcan0 09F112CC#FF635AFF7FFF7FFD
(1502984878.323109) slcan0 09F113CC#FF10130100FFFFFF
(1502984878.323112) slcan0 09F119CC#FF635AE3F7F504FF
(1502984878.326870) slcan0 09F10DCC#00FFFF7FE9FBFFFF
(1502984878.326886) slcan0 09F10DCC#FCF8FF7FFF7FFFFF
(1502984878.326889) slcan0 1CFF4FCC#3B9FFFFFFF645AFF
(1502984878.344206) slcan0 09F105AC#00153CC01FFF7FFF
(1502984878.344226) slcan0 09F105AC#01FFFFFFFFFFFFFF
(1502984878.344230) slcan0 09F105AC#02FF7FFF7FFF7FFF
(1502984878.344232) slcan0 09F105AC#03FFFFFFFFFFFFFF
(1502984878.346260) slcan0 09F10DAC#FCF8FF7FF2FBFFFF
(1502984878.374253) slcan0 09F8012B#232C6B1B3A5E36FF
(1502984878.422309) slcan0 09F112CC#FF675AFF7FFF7FFD
(1502984878.422330) slcan0 09F113CC#FFC9220100FFFFFF
(1502984878.422333) slcan0 09F119CC#FF675AE2F7F004FF
(1502984878.422336) slcan0 09F10DCC#00FFFF7FF2FBFFFF
(1502984878.424309) slcan0 09F10DCC#FCF8FF7FFF7FFFFF
(1502984878.428123) slcan0 1CFF4FCC#3B9FFFFFFF675AFF
(1502984878.428139) slcan0 1DEFFFCC#60083B9FF0819C51
(1502984878.428142) slcan0 1DEFFFCC#6115FBFFFFFFFFFF
(1502984878.442347) slcan0 09F10DAC#FCF8FF7FE9FBFFFF
(1502984878.474564) slcan0 09F8012B#232C6B1B3A5E36FF
(1502984878.524347) slcan0 09F112CC#FF6A5AFF7FFF7FFD
(1502984878.524368) slcan0 09F113CC#FF453C0100FFFFFF
(1502984878.524371) slcan0 09F8022B#FF00000002000000
(1502984878.530781) slcan0 09F119CC#FF6A5AE1F7EE04FF
(1502984878.530795) slcan0 09F10DCC#00FFFF7FE9FBFFFF
(1502984878.530799) slcan0 09F10DCC#FCF8FF7FFF7FFFFF
(1502984878.530801) slcan0 1CFF4FCC#3B9FFFFFFF6A5AFF
(1502984878.543371) slcan0 09F10DAC#FCF8FF7FE9FBFFFF
(1502984878.574254) slcan0 09F8012B#232C6B1B3A5E36FF
(1502984878.595283) slcan0 09F105AC#20153CC01FFF7FFF
(1502984878.595304) slcan0 09F105AC#21FFFFFFFFFFFFFF
(1502984878.595307) slcan0 09F105AC#22FF7FFF7FFF7FFF
(1502984878.595309) slcan0 09F105AC#23FFFFFFFFFFFFFF
(1502984878.623423) slcan0 09F112CC#FF6C5AFF7FFF7FFD
(1502984878.623444) slcan0 09F113CC#FFC9050100FFFFFF
(1502984878.623448) slcan0 09F119CC#FF6C5AE0F7EB04FF
(1502984878.623450) slcan0 09F10DCC#00FFFF7FE9FBFFFF
(1502984878.626785) slcan0 09F10DCC#FCF8FF7FFF7FFFFF
(1502984878.626800) slcan0 1CFF4FCC#3B9FFFFFFF6C5AFF
(1502984878.644357) slcan0 09F10DAC#FCF8FF7FE9FBFFFF
(1502984878.674281) slcan0 09F8012B#232C6B1B3A5E36FF
(1502984878.722361) slcan0 09F112CC#FF6C5AFF7FFF7FFD
(1502984878.722380) slcan0 09F113CC#FF13C30000FFFFFF
(1502984878.722383) slcan0 09F119CC#FF6C5ADFF7EB04FF
(1502984878.722386) slcan0 09F10DCC#00FFFF7FE9FBFFFF
(1502984878.726751) slcan0 09F10DCC#FCF8FF7FFF7FFFFF
(1502984878.726771) slcan0 1CFF4FCC#3B9FFFFFFF6D5AFF
(1502984878.744336) slcan0 09F10DAC#FCF8FF7FE9FBFFFF
(1502984878.755240) slcan0 1DEFFF00#40073B9FF0819000
(1502984878.755259) slcan0 1DEFFF00#4103FFFFFFFFFFFF
(1502984878.774324) slcan0 09F8012B#232C6B1B3A5E36FF
(1502984878.784243) slcan0 09F8022B#FF00000002000000
(1502984878.824407) slcan0 09F112CC#FF6E5AFF7FFF7FFD
(1502984878.824428) slcan0 09F113CC#FFACC80000FFFFFF
(1502984878.824431) slcan0 09FD0274#0030018A70FAFFFF
(1502984878.831118) slcan0 09F119CC#FF6E5ADFF7EB04FF
(1502984878.831134) slcan0 09F10DCC#00FFFF7FE9FBFFFF
(1502984878.831137) slcan0 09F10DCC#FCF8FF7FFF7FFFFF
(1502984878.831139) slcan0 1CFF4FCC#3B9FFFFFFF6E5AFF
(1502984878.844184) slcan0 09F105AC#40153CC01FFF7FFF
(1502984878.844205) slcan0 09F105AC#41FFFFFFFFFFFFFF
(1502984878.844208) slcan0 09F105AC#42FF7FFF7FFF7FFF
(1502984878.844210) slcan0 09F105AC#43FFFFFFFFFFFFFF
(1502984878.846153) slcan0 09F10DAC#FCF8FF7FE9FBFFFF
(1502984878.880510) slcan0 0DF50B74#00CA000000FFFFFF
(1502984878.884122) slcan0 09F8012B#232C6B1B3A5E36FF
(1502984878.908159) slcan0 09F50374#000E00FFFF00FFFF
(1502984878.908179) slcan0 1CFF1A74#3B9F0E00FFFFFFFF
(1502984878.922987) slcan0 09F112CC#FF6E5AFF7FFF7FFD
(1502984878.923004) slcan0 09F113CC#FFA2860000FFFFFF
(1502984878.923007) slcan0 09F119CC#FF6E5ADEF7EC04FF
(1502984878.926050) slcan0 09F10DCC#00FFFF7FE9FBFFFF
(1502984878.926064) slcan0 09F10DCC#FCF8FF7FFF7FFFFF
(1502984878.926067) slcan0 11F80F2B#601B12D62E8E0D3B
(1502984878.926070) slcan0 1CFF63CC#3B9F0000000002FF
(1502984878.929786) slcan0 1CFF4FCC#3B9FFFFFFF6F5AFF
(1502984878.929800) slcan0 1DEFFFCC#800D3B9FF0818456
(1502984878.929803) slcan0 1DEFFFCC#8155554000FB0205
(1502984878.929805) slcan0 15FD0774#00C0FF73FF7FFFFF
(1502984878.934205) slcan0 11F80F2B#615E36FF232C6B1B
(1502984878.944271) slcan0 09F10DAC#FCF8FF7FF2FBFFFF
(1502984878.944293) slcan0 11F80F2B#6203FFFF00000600
(1502984878.954199) slcan0 11F80F2B#6326FFFF007401FF
(1502984878.995417) slcan0 1CFF6800#3B9F000000000000
(1502984879.014270) slcan0 09F8012B#232C6B1B3A5E36FF
(1502984879.022973) slcan0 09F112CC#FF705AFF7FFF7FFD
(1502984879.022987) slcan0 09F113CC#FFCA890000FFFFFF
(1502984879.022990) slcan0 09F119CC#FF705AE0F7EE04FF
(1502984879.022992) slcan0 09F10DCC#00FFFF7FF2FBFFFF
(1502984879.026829) slcan0 09F10DCC#FCF8FF7FFF7FFFFF
(1502984879.026847) slcan0 1DEFFFCC#A0093B9FF081AE02
(1502984879.026850) slcan0 1DEFFFCC#A1000CA5FFFFFFFF
(1502984879.026852) slcan0 1CFF4FCC#3B9FFFFFFF6F5AFF
(1502984879.026854) slcan0 1DFF64CC#A0073B9FFFFFFF7F
(1502984879.028951) slcan0 1DFF64CC#A1FFFFFFFFFFFFFF
(1502984879.044510) slcan0 09F50374#000A00FFFF00FFFF
(1502984879.044527) slcan0 09F10DAC#FCF8FF7FF2FBFFFF
(1502984879.064412) slcan0 09F8022B#FF00000001000000
(1502984879.068422) slcan0 15FD0774#00C0AF73FF7FFFFF
(1502984879.094636) slcan0 09F105AC#60153CC01FFF7FFF
(1502984879.094656) slcan0 09F105AC#61FFFFFFFFFFFFFF
(1502984879.094659) slcan0 09F105AC#62FF7FFF7FFF7FFF
(1502984879.094661) slcan0 09F105AC#63FFFFFFFFFFFFFF
(1502984879.114411) slcan0 09F8012B#232C6B1B3A5E36FF
(1502984879.123272) slcan0 09F112CC#FF705AFF7FFF7FFD
(1502984879.123287) slcan0 09F113CC#FFD4610000FFFFFF
(1502984879.123290) slcan0 09F119CC#FF705AE1F7F004FF
(1502984879.123293) slcan0 09F10DCC#00FFFF7FF2FBFFFF
(1502984879.126814) slcan0 09F10DCC#FCF8FF7FFF7FFFFF
(1502984879.126827) slcan0 1CFF4FCC#3B9FFFFFFF705AFF
(1502984879.144268) slcan0 09F10DAC#FCF8FF7FE9FBFFFF
(1502984879.214310) slcan0 09F8012B#232C6B1B3A5E36FF
(1502984879.223797) slcan0 09F112CC#FF705AFF7FFF7FFD
(1502984879.223813) slcan0 09F113CC#FFAC550000FFFFFF
(1502984879.223817) slcan0 09F119CC#FF705AE3F7F304FF
(1502984879.223820) slcan0 09F10DCC#00FFFF7FE9FBFFFF
(1502984879.228884) slcan0 09F10DCC#FCF8FF7FFF7FFFFF
(1502984879.228905) slcan0 1CFF4FCC#3B9FFFFFFF705AFF
(1502984879.243475) slcan0 09F10DAC#FCF8FF7FE9FBFFFF
(1502984879.248448) slcan0 19F51374#C00EFFFFFFFFFFFF
(1502984879.248463) slcan0 19F51374#C11C4B2400790300
(1502984879.248466) slcan0 19F51374#C200FFFFFFFFFFFF
(1502984879.248468) slcan0 1DFF6774#E00B3B9F0300041C
(1502984879.252435) slcan0 1DFF6774#E1C409190909FFFF
(1502984879.252449) slcan0 1DFF6774#000B3B9F0301041C
(1502984879.252452) slcan0 1DFF6774#01C409190909FFFF
(1502984879.252454) slcan0 1DFF6774#200B3B9F0302041C
(1502984879.255412) slcan0 1DFF6774#21C409190909FFFF
(1502984879.314407) slcan0 09F8012B#232C6B1B3A5E36FF
(1502984879.324244) slcan0 09F112CC#FF715AFF7FFF7FFD
(1502984879.324261) slcan0 09F113CC#FFBE4A0000FFFFFF
(1502984879.324265) slcan0 09F119CC#FF715AE5F7F504FF
(1502984879.324267) slcan0 09F8022B#FF00000001000000
(1502984879.329479) slcan0 09F10DCC#00FFFF7FE9FBFFFF
(1502984879.329493) slcan0 09F10DCC#FCF8FF7FFF7FFFFF
(1502984879.329496) slcan0 1CFF4FCC#3B9FFFFFFF715AFF
(1502984879.345054) slcan0 09F105AC#80153CC01FFF7FFF
(1502984879.345071) slcan0 09F105AC#81FFFFFFFFFFFFFF
(1502984879.345074) slcan0 09F105AC#82FF7FFF7FFF7FFF
(1502984879.345076) slcan0 09F105AC#83FFFFFFFFFFFFFF
(1502984879.346974) slcan0 09F10DAC#FCF8FF7FE9FBFFFF
(1502984879.422234) slcan0 09F112CC#FF715AFF7FFF7FFD
(1502984879.422257) slcan0 09F113CC#FF9B2B0000FFFFFF
(1502984879.422260) slcan0 09F119CC#FF715AE7F7F704FF
(1502984879.422263) slcan0 09F10DCC#00FFFF7FE9FBFFFF
(1502984879.429419) slcan0 09F8012B#232C6B1B3A5E36FF
(1502984879.429435) slcan0 09F10DCC#FCF8FF7FFF7FFFFF
(1502984879.429439) slcan0 1DEFFFCC#C0083B9FF0819C51
(1502984879.429441) slcan0 1CFF4FCC#3B9FFFFFFF705AFF
(1502984879.429444) slcan0 1DEFFFCC#C115FBFFFFFFFFFF
(1502984879.442234) slcan0 09F10DAC#FCF8FF7FE9FBFFFF
(1502984879.524183) slcan0 09F112CC#FF715AFF7FFF7FFD
(1502984879.524206) slcan0 09F113CC#FF35160000FFFFFF
(1502984879.524209) slcan0 09F119CC#FF715AEAF7F904FF
(1502984879.524212) slcan0 09F8012B#232C6B1B3A5E36FF
(1502984879.528359) slcan0 09F10DCC#00FFFF7FE9FBFFFF
(1502984879.528374) slcan0 09F10DCC#FCF8FF7FFF7FFFFF
(1502984879.528378) slcan0 1CFF4FCC#3B9FFFFFFF715AFF
(1502984879.544246) slcan0 09F10DAC#FCF8FF7FE9FBFFFF
(1502984879.574457) slcan0 09F8022B#FF00000001000000
(1502984879.595066) slcan0 09F105AC#A0153CC01FFF7FFF
(1502984879.595087) slcan0 09F105AC#A1FFFFFFFFFFFFFF
(1502984879.595090) slcan0 09F105AC#A2FF7FFF7FFF7FFF
(1502984879.595093) slcan0 09F105AC#A3FFFFFFFFFFFFFF
(1502984879.622289) slcan0 09F112CC#FF725AFF7FFF7FFD
(1502984879.622306) slcan0 09F113CC#FF782C0000FFFFFF
(1502984879.622309) slcan0 09F119CC#FF725AE9F7FB04FF
(1502984879.622312) slcan0 09F10DCC#00FFFF7FE9FBFFFF
(1502984879.628131) slcan0 09F8012B#232C6B1B3A5E36FF
(1502984879.628147) slcan0 09F10DCC#FCF8FF7FFF7FFFFF
(1502984879.628150) slcan0 1CFF4FCC#3B9FFFFFFF725AFF
(1502984879.644155) slcan0 09F10DAC#FCF8FF7FE9FBFFFF
(1502984879.682818) slcan0 0DEDCC00#40150000EF01FFFF
(1502984879.682839) slcan0 0DEDCC00#41FFFFFFFF04013B
(1502984879.682842) slcan0 0DEDCC00#42070304046C051A
(1502984879.682845) slcan0 0DEDCC00#4350FFFFFFFFFFFF
(1502984879.686338) slcan0 1DEF00CC#400D3B9F6C1A5053
(1502984879.686354) slcan0 1DEF00CC#410653065306FF7F
(1502984879.722308) slcan0 09F112CC#FF725AFF7FFF7FFD
(1502984879.722327) slcan0 09F113CC#FF351F0000FFFFFF
(1502984879.722330) slcan0 09F119CC#FF725AECF7FD04FF
(1502984879.722332) slcan0 09F10DCC#00FFFF7FE9FBFFFF
(1502984879.728042) slcan0 09F8012B#232C6B1B3A5E36FF
(1502984879.728056) slcan0 09F10DCC#FCF8FF7FFF7FFFFF
(1502984879.728059) slcan0 1CFF4FCC#3B9FFFFFFF735AFF
(1502984879.744374) slcan0 09F10DAC#FCF8FF7FF2FBFFFF
(1502984879.824891) slcan0 09F112CC#FF745AFF7FFF7FFD
(1502984879.824913) slcan0 09F113CC#FFBB440000FFFFFF
(1502984879.824916) slcan0 09F8012B#232C6B1B3A5E36FF
(1502984879.824918) slcan0 09FD0274#0016019572FAFFFF
(1502984879.828944) slcan0 09F119CC#FF755AEDF7FF04FF
(1502984879.836046) slcan0 09F10DCC#00FFFF7FF2FBFFFF
(1502984879.836057) slcan0 09F10DCC#FCF8FF7FFF7FFFFF
(1502984879.836060) slcan0 09F8022B#FF00000001000000
(1502984879.836063) slcan0 1CFF4FCC#3B9FFFFFFF755AFF
(1502984879.845099) slcan0 09F105AC#C0153CC01FFF7FFF
(1502984879.845116) slcan0 09F105AC#C1FFFFFFFFFFFFFF
(1502984879.845119) slcan0 09F105AC#C2FF7FFF7FFF7FFF
(1502984879.845122) slcan0 09F105AC#C3FFFFFFFFFFFFFF
(1502984879.846971) slcan0 09F10DAC#FCF8FF7FE9FBFFFF
(1502984879.873906) slcan0 0DF50B74#00CD000000FFFFFF
(1502984879.905682) slcan0 09F50374#001B00FFFF00FFFF
(1502984879.905700) slcan0 1CFF1A74#3B9F0E00FFFFFFFF
(1502984879.922381) slcan0 09F112CC#FF755AFF7FFF7FFD
(1502984879.922398) slcan0 09F113CC#FFFC300000FFFFFF
(1502984879.922401) slcan0 09F119CC#FF755AEBF70105FF
(1502984879.922403) slcan0 09F10DCC#00FFFF7FE9FBFFFF
(1502984879.926502) slcan0 11F80E2B#801C01603AED0E8A
(1502984879.926516) slcan0 09F10DCC#FCF8FF7FFF7FFFFF
(1502984879.926519) slcan0 1CFF63CC#3B9F0000000002FF
(1502984879.926522) slcan0 1DEFFFCC#E00D3B9FF0818456
(1502984879.926524) slcan0 1DEFFFCC#E155554000FB0205
(1502984879.929168) slcan0 1CFF4FCC#3B9FFFFFFF755AFF
(1502984879.929183) slcan0 15FD0774#00C0FF73FF7FFFFF
(1502984879.934343) slcan0 11F80E2B#813445FF20DA811B
(1502984879.944405) slcan0 09F10DAC#FCF8FF7FE9FBFFFF
(1502984879.944428) slcan0 11F80E2B#82B07CEE0000FF08
(1502984879.954392) slcan0 11F80E2B#830865A800000000
(1502984879.964436) slcan0 11F80E2B#84FFFFFFFFFFFFFF
(1502984879.974492) slcan0 09F8012B#232C6B1B3A5E36FF
(1502984879.995559) slcan0 1CFF6800#3B9F000000000000
(1502984880.023456) slcan0 09F112CC#FF775AFF7FFF7FFD
(1502984880.023478) slcan0 09F113CC#FFEC400000FFFFFF
(1502984880.023481) slcan0 09F119CC#FF775AEBF70405FF
(1502984880.023483) slcan0 09F10DCC#00FFFF7FE9FBFFFF
(1502984880.027114) slcan0 09F10DCC#FCF8FF7FFF7FFFFF
(1502984880.027127) slcan0 09F50374#001A00FFFF00FFFF
(1502984880.027131) slcan0 1DEFFFCC#00093B9FF081AE02
(1502984880.027133) slcan0 1DEFFFCC#01000CA5FFFFFFFF
(1502984880.032165) slcan0 1CFF4FCC#3B9FFFFFFF775AFF
(1502984880.032179) slcan0 1DFF64CC#C0073B9FFFFFFF7F
(1502984880.032182) slcan0 1DFF64CC#C1FFFFFFFFFFFFFF
(1502984880.043203) slcan0 09F10DAC#FCF8FF7FF2FBFFFF
(1502984880.051635) slcan0 15FD0774#00C0AF73FF7FFFFF
(1502984880.074374) slcan0 09F8012B#232C6B1B3A5E36FF
(1502984880.095594) slcan0 09F105AC#E0153CC01FFF7FFF
(1502984880.095613) slcan0 09F105AC#E1FFFFFFFFFFFFFF
(1502984880.095616) slcan0 09F105AC#E2FF7FFF7FFF7FFF
(1502984880.095619) slcan0 09F105AC#E3FFFFFFFFFFFFFF
(1502984880.122365) slcan0 09F112CC#FF775AFF7FFF7FFD
(1502984880.122381) slcan0 09F113CC#FFA91B0000FFFFFF
(1502984880.122384) slcan0 09F119CC#FF775AE9F70505FF
(1502984880.122386) slcan0 09F10DCC#00FFFF7FF2FBFFFF
(1502984880.126086) slcan0 09F8022B#FF00000002000000
(1502984880.126101) slcan0 09F10DCC#FCF8FF7FFF7FFFFF
(1502984880.129818) slcan0 1CFF4FCC#3B9FFFFFFF765AFF
(1502984880.144164) slcan0 09F10DAC#FCF8FF7FE9FBFFFF
(1502984880.174314) slcan0 09F8012B#232C6B1B3A5E36FF
(1502984880.223955) slcan0 09F112CC#FF765AFF7FFF7FFD
(1502984880.223976) slcan0 09F113CC#FF81F7FFFFFFFFFF
(1502984880.223979) slcan0 09F119CC#FF765AE6F70605FF
(1502984880.223982) slcan0 09F10DCC#00FFFF7FE9FBFFFF
(1502984880.226685) slcan0 09F10DCC#FCF8FF7FFF7FFFFF
(1502984880.226701) slcan0 1CFF4FCC#3B9FFFFFFF765AFF
(1502984880.244719) slcan0 09F10DAC#FCF8FF7FE9FBFFFF
(1502984880.244739) slcan0 19F51374#400EFFFFFFFFFFFF
(1502984880.244742) slcan0 19F51374#411C4B2400790300
(1502984880.244744) slcan0 19F51374#4200FFFFFFFFFFFF
(1502984880.249268) slcan0 1DFF6774#600B3B9F0300041C
(1502984880.249282) slcan0 1DFF6774#61C409190909FFFF
(1502984880.249285) slcan0 1DFF6774#800B3B9F0301041C
