# BeagleBone Black / Debian GNU Linux 7 candump sample.
# (candump version unknown)
#
# This sample file was logged from an NMEA 2K bus
# containing a B&G ZG100, ST508, and dual T41s.
#
  can0  09F8027F   [8]  00 FC FF FF 00 00 FF FF
  can0  09F8017F   [8]  E8 AC 51 19 BE AB 6D D5
  can0  09F11280   [8]  00 9C 99 FF 7F F6 F5 FD
  can0  0DF11380   [8]  00 D6 4B FF FF 00 FF FF
  can0  09FD0207   [8]  00 00 00 F5 04 FA FF FF
  can0  09F8027F   [8]  00 FC FF FF 00 00 FF FF
  can0  09F8017F   [8]  E8 AC 51 19 BE AB 6D D5
  can0  09F11280   [8]  00 9E 99 FF 7F F6 F5 FD
  can0  0DF11380   [8]  00 0A 81 FF FF 00 FF FF
  can0  09FD0207   [8]  00 00 00 B4 04 FA FF FF
  can0  09F8027F   [8]  00 FC FF FF 00 00 FF FF
  can0  09F8017F   [8]  E8 AC 51 19 BE AB 6D D5
  can0  09F11280   [8]  00 9A 99 FF 7F F6 F5 FD
  can0  0DF11380   [8]  00 82 0C 00 00 00 FF FF
  can0  09FD0207   [8]  00 00 00 EB 04 FA FF FF
  can0  09F8027F   [8]  00 FC FF FF 00 00 FF FF
  can0  09F8017F   [8]  E8 AC 51 19 BE AB 6D D5
  can0  09F11280   [8]  00 9C 99 FF 7F F6 F5 FD
  can0  0DF11380   [8]  00 6B 6B 00 00 00 FF FF
  can0  09FD0207   [8]  00 00 00 BE 04 FA FF FF
  can0  09F8027F   [8]  00 FC FF FF 00 00 FF FF
  can0  09F8017F   [8]  E8 AC 51 19 BE AB 6D D5
  can0  09F11280   [8]  00 9F 99 FF 7F F6 F5 FD
  can0  0DF11380   [8]  00 90 FA FF FF 00 FF FF
  can0  09FD0207   [8]  00 00 00 CF 04 FA FF FF
  can0  09F8027F   [8]  00 FC FF FF 00 00 FF FF
  can0  09F8017F   [8]  E8 AC 51 19 BE AB 6D D5
  can0  09F11280   [8]  00 A2 99 FF 7F F6 F5 FD
  can0  0DF11380   [8]  00 66 B3 FF FF 00 FF FF
  can0  0DF8057F   [8]  20 2B 00 74 40 A0 7C 97
  can0  0DF8057F   [8]  21 0A 00 10 FF ED F5 21
  can0  0DF8057F   [8]  22 E5 05 00 A9 F1 8F F6
  can0  0DF8057F   [8]  23 88 16 F6 90 BA C5 03
  can0  0DF8057F   [8]  24 00 00 00 00 12 FC 00
  can0  0DF8057F   [8]  25 BE 00 54 01 E1 F2 FF
  can0  0DF8057F   [8]  26 FF 00 FF FF FF FF FF
  can0  19FA047F   [8]  20 93 00 FF 0C 01 A2 1C
  can0  19FA047F   [8]  21 16 22 C4 09 00 00 00
  can0  19FA047F   [8]  22 00 F2 03 39 19 E7 46
  can0  19FA047F   [8]  23 B8 0B 00 00 00 00 F2
  can0  19FA047F   [8]  24 04 DC 08 68 21 A4 06
  can0  19FA047F   [8]  25 00 00 00 00 F2 0B 5C
  can0  19FA047F   [8]  26 10 39 28 40 06 00 00
  can0  19FA047F   [8]  27 00 00 F2 11 45 2A FC
  can0  19FA047F   [8]  28 D1 C4 09 00 00 00 00
  can0  19FA047F   [8]  29 F2 1C 2D 35 A1 67 F0
  can0  19FA047F   [8]  2A 0A 00 00 00 00 F2 46
  can0  19FA047F   [8]  2B A2 0D A2 1C 00 00 00
  can0  19FA047F   [8]  2C 00 00 00 F2 56 50 1D
  can0  19FA047F   [8]  2D A2 1C 00 00 00 00 00
  can0  19FA047F   [8]  2E 00 F2 46 97 0B DC 17
  can0  19FA047F   [8]  2F 54 0B 00 00 00 00 F2
  can0  19FA047F   [8]  30 56 FF 1D F3 1B 8C 0A
  can0  19FA047F   [8]  31 00 00 00 00 F2 57 7F
  can0  19FA047F   [8]  32 25 42 CF F0 0A 00 00
  can0  19FA047F   [8]  33 00 00 F2 47 B9 11 FE
  can0  19FA047F   [8]  34 3B E4 0C 00 00 00 00
  can0  19FA047F   [8]  35 F2 FF FF FF FF FF FF
  can0  0DF0107F   [8]  00 F0 74 40 A0 7C 97 0A
  can0  19FA037F   [8]  00 D3 BE 00 18 01 FF 7F
  can0  1DF11A7F   [8]  00 F6 FF FF F6 F5 FF FF
  can0  0DF11980   [8]  00 FF 7F 9F 00 07 00 FF
  can0  09FD0207   [8]  00 00 00 E2 04 FA FF FF
  can0  09F8027F   [8]  00 FC FF FF 00 00 FF FF
  can0  09F8017F   [8]  E8 AC 51 19 BE AB 6D D5
  can0  09F11280   [8]  00 A2 99 FF 7F F6 F5 FD
  can0  0DF11380   [8]  00 2B DE FF FF 7C 97 0A
  can0  09FD0207   [8]  00 00 00 E2 04 FA FF FF
  can0  1DF11A02   [8]  16 FF FF FF F6 F5 FF FF
  can0  09F8027F   [8]  00 FC FF FF 00 00 FF FF
  can0  09F8017F   [8]  E8 AC 51 19 BE AB 6D D5
  can0  09F11280   [8]  00 A2 99 FF 7F F6 F5 FD
  can0  0DF11380   [8]  00 5D 3E FF FF 00 FF FF
  can0  1DF11A05   [8]  00 FF FF FF F6 F5 FF FF
  can0  09FD0207   [8]  00 00 00 BE 04 FA FF FF
  can0  09F8027F   [8]  00 FC FF FF 00 00 FF FF
  can0  09F8017F   [8]  E8 AC 51 19 BE AB 6D D5
  can0  09F11280   [8]  00 A0 99 FF 7F F6 F5 FD
  can0  0DF11380   [8]  00 54 84 FF FF 00 FF FF
  can0  09FD0207   [8]  00 00 00 DA 04 FA FF FF
  can0  09F8027F   [8]  00 FC FF FF 00 00 FF FF
  can0  09F8017F   [8]  E8 AC 51 19 BE AB 6D D5
  can0  09F11280   [8]  00 A1 99 FF 7F F6 F5 FD
  can0  0DF11380   [8]  00 88 67 FF FF 00 FF FF
  can0  09FD0207   [8]  00 00 00 E2 04 FA FF FF
  can0  09F8027F   [8]  00 FC FF FF 00 00 FF FF
  can0  09F8017F   [8]  E8 AC 51 19 BE AB 6D D5
  can0  09F11280   [8]  00 9F 99 FF 7F F6 F5 FD
  can0  0DF11380   [8]  00 8D B8 FF FF 00 FF FF
  can0  09FD0207   [8]  00 00 00 F5 04 FA FF FF
  can0  09F8027F   [8]  00 FC FF FF 00 00 FF FF
  can0  09F8017F   [8]  E8 AC 51 19 BE AB 6D D5
  can0  09F11280   [8]  00 A2 99 FF 7F F6 F5 FD
  can0  0DF11380   [8]  00 16 B5 FF FF 00 FF FF
  can0  09FD0207   [8]  00 00 00 D2 04 FA FF FF
  can0  09F8027F   [8]  00 FC FF FF 00 00 FF FF
  can0  09F8017F   [8]  E8 AC 51 19 BE AB 6D D5
  can0  09F11280   [8]  00 A4 99 FF 7F F6 F5 FD
  can0  0DF11380   [8]  00 B9 A2 FF FF 00 FF FF
  can0  09FD0207   [8]  00 00 00 ED 04 FA FF FF
  can0  09F8027F   [8]  00 FC FF FF 00 00 FF FF
  can0  09F8017F   [8]  E8 AC 51 19 BE AB 6D D5
  can0  09F11280   [8]  00 A4 99 FF 7F F6 F5 FD
  can0  0DF11380   [8]  00 61 64 FF FF 00 FF FF
  can0  09FD0207   [8]  00 00 00 EB 04 FA FF FF
  can0  09F8027F   [8]  00 FC FF FF 00 00 FF FF
  can0  09F8017F   [8]  E8 AC 51 19 BE AB 6D D5
  can0  09F11280   [8]  00 A1 99 FF 7F F6 F5 FD
  can0  0DF11380   [8]  00 90 0D FF FF 00 FF FF
  can0  09FD0207   [8]  00 00 00 EB 04 FA FF FF
  can0  09F8027F   [8]  00 FC FF FF 00 00 FF FF
  can0  09F8017F   [8]  E8 AC 51 19 BE AB 6D D5
  can0  09F11280   [8]  00 A4 99 FF 7F F6 F5 FD
  can0  0DF11380   [8]  00 01 DE FE FF 00 FF FF
  can0  0DF8057F   [8]  40 2B 00 74 40 B0 A3 97
  can0  0DF8057F   [8]  41 0A 00 10 FF ED F5 21
  can0  0DF8057F   [8]  42 E5 05 00 A9 F1 8F F6
  can0  0DF8057F   [8]  43 88 16 F6 90 BA C5 03
  can0  0DF8057F   [8]  44 00 00 00 00 12 FC 00
  can0  0DF8057F   [8]  45 BE 00 54 01 E1 F2 FF
  can0  0DF8057F   [8]  46 FF 00 FF FF FF FF FF
  can0  19FA047F   [8]  40 93 00 FF 0C 01 A2 1C
  can0  19FA047F   [8]  41 16 22 C4 09 00 00 00
  can0  19FA047F   [8]  42 00 F2 03 39 19 E7 46
  can0  19FA047F   [8]  43 B8 0B 00 00 00 00 F2
  can0  19FA047F   [8]  44 04 DC 08 68 21 A4 06
  can0  19FA047F   [8]  45 00 00 00 00 F2 0B 5C
  can0  19FA047F   [8]  46 10 39 28 A4 06 00 00
  can0  19FA047F   [8]  47 00 00 F2 11 45 2A FC
  can0  19FA047F   [8]  48 D1 C4 09 00 00 00 00
  can0  19FA047F   [8]  49 F2 1C 2D 35 A1 67 F0
  can0  19FA047F   [8]  4A 0A 00 00 00 00 F2 46
  can0  19FA047F   [8]  4B A2 0D A2 1C 00 00 00
  can0  19FA047F   [8]  4C 00 00 00 F2 56 50 1D
  can0  19FA047F   [8]  4D A2 1C 00 00 00 00 00
  can0  19FA047F   [8]  4E 00 F2 46 97 0B DC 17
  can0  19FA047F   [8]  4F B8 0B 00 00 00 00 F2
  can0  19FA047F   [8]  50 56 FF 1D F3 1B F0 0A
  can0  19FA047F   [8]  51 00 00 00 00 F2 57 7F
  can0  19FA047F   [8]  52 25 42 CF F0 0A 00 00
  can0  19FA047F   [8]  53 00 00 F2 47 B9 11 FE
  can0  19FA047F   [8]  54 3B 48 0D 00 00 00 00
  can0  19FA047F   [8]  55 F2 FF FF FF FF FF FF
  can0  0DF0107F   [8]  00 F0 74 40 B0 A3 97 0A
  can0  19FA037F   [8]  00 D3 BE 00 18 01 FF 7F
  can0  1DF11A7F   [8]  00 F6 FF FF F6 F5 FF FF
  can0  0DF11980   [8]  00 FF 7F 9D 00 08 00 FF
  can0  09FD0207   [8]  00 00 00 CF 04 FA FF FF
  can0  09F8027F   [8]  00 FC FF FF 00 00 FF FF
  can0  09F8017F   [8]  E8 AC 51 19 BE AB 6D D5
  can0  09F11280   [8]  00 A5 99 FF 7F F6 F5 FD
  can0  0DF11380   [8]  00 63 2D FF FF A3 97 0A
  can0  09FD0207   [8]  00 00 00 C7 04 FA FF FF
  can0  09F8027F   [8]  00 FC FF FF 00 00 FF FF
  can0  09F8017F   [8]  E8 AC 51 19 BE AB 6D D5
  can0  09F11280   [8]  00 A8 99 FF 7F F6 F5 FD
  can0  0DF11380   [8]  00 EB 46 FF FF 00 FF FF
  can0  1DF11A02   [8]  16 FF FF FF F6 F5 FF FF
  can0  1DF11A05   [8]  00 FF FF FF F6 F5 FF FF
  can0  09FD0207   [8]  00 00 00 C1 04 FA FF FF
  can0  09F8027F   [8]  00 FC FF FF 00 00 FF FF
  can0  09F8017F   [8]  E8 AC 51 19 BE AB 6D D5
  can0  09F11280   [8]  00 A5 99 FF 7F F6 F5 FD
  can0  0DF11380   [8]  00 31 6D FF FF 00 FF FF
  can0  09FD0207   [8]  00 00 00 E2 04 FA FF FF
  can0  09F8027F   [8]  00 FC FF FF 00 00 FF FF
  can0  09F8017F   [8]  E8 AC 51 19 BE AB 6D D5
  can0  09F11280   [8]  00 A2 99 FF 7F F6 F5 FD
  can0  0DF11380   [8]  00 70 43 FF FF 00 FF FF
  can0  09FD0207   [8]  00 00 00 D2 04 FA FF FF
  can0  09F8027F   [8]  00 FC FF FF 00 00 FF FF
  can0  09F8017F   [8]  E8 AC 51 19 BE AB 6D D5
  can0  09F11280   [8]  00 A0 99 FF 7F F6 F5 FD
  can0  0DF11380   [8]  00 0E 98 FF FF 00 FF FF
  can0  09FD0207   [8]  00 00 00 CF 04 FA FF FF
  can0  09F8027F   [8]  00 FC FF FF 00 00 FF FF
  can0  09F8017F   [8]  E8 AC 51 19 BE AB 6D D5
  can0  09F11280   [8]  00 A3 99 FF 7F F6 F5 FD
  can0  0DF11380   [8]  00 C6 5A FF FF 00 FF FF
  can0  09FD0207   [8]  00 00 00 D2 04 FA FF FF
  can0  09F8027F   [8]  00 FC FF FF 00 00 FF FF
  can0  09F8017F   [8]  E8 AC 51 19 BE AB 6D D5
  can0  09F11280   [8]  00 A2 99 FF 7F F6 F5 FD
  can0  0DF11380   [8]  00 4B 14 FF FF 00 FF FF
  can0  09FD0207   [8]  00 00 00 EB 04 FA FF FF
  can0  09F8027F   [8]  00 FC FF FF 00 00 FF FF
  can0  09F8017F   [8]  E8 AC 51 19 BE AB 6D D5
  can0  09F11280   [8]  00 A6 99 FF 7F F6 F5 FD
  can0  0DF11380   [8]  00 57 88 FE FF 00 FF FF
  can0  09FD0207   [8]  00 00 00 C9 04 FA FF FF
  can0  09F8027F   [8]  00 FC FF FF 00 00 FF FF
  can0  09F8017F   [8]  E8 AC 51 19 BE AB 6D D5
  can0  09F11280   [8]  00 A5 99 FF 7F F6 F5 FD
  can0  0DF11380   [8]  00 75 38 FE FF 00 FF FF
  can0  09FD0207   [8]  00 00 00 CF 04 FA FF FF
  can0  09F8027F   [8]  00 FC FF FF 00 00 FF FF
  can0  09F8017F   [8]  E8 AC 51 19 BE AB 6D D5
  can0  09F11280   [8]  00 A4 99 FF 7F F6 F5 FD
  can0  0DF11380   [8]  00 0A 7A FE FF 00 FF FF
  can0  0DF8057F   [8]  60 2B 00 74 40 C0 CA 97
  can0  0DF8057F   [8]  61 0A 00 10 FF ED F5 21
  can0  0DF8057F   [8]  62 E5 05 00 A9 F1 8F F6
  can0  0DF8057F   [8]  63 88 16 F6 90 BA C5 03
  can0  0DF8057F   [8]  64 00 00 00 00 12 FC 00
  can0  0DF8057F   [8]  65 BE 00 54 01 E1 F2 FF
  can0  0DF8057F   [8]  66 FF 00 FF FF FF FF FF
  can0  19FA047F   [8]  60 93 00 FF 0C 01 A2 1C
  can0  19FA047F   [8]  61 16 22 C4 09 00 00 00
  can0  19FA047F   [8]  62 00 F2 03 39 19 E7 46
  can0  19FA047F   [8]  63 B8 0B 00 00 00 00 F2
  can0  19FA047F   [8]  64 04 DC 08 68 21 A4 06
  can0  19FA047F   [8]  65 00 00 00 00 F2 0B 5C
  can0  19FA047F   [8]  66 10 39 28 40 06 00 00
  can0  19FA047F   [8]  67 00 00 F2 11 45 2A FC
  can0  19FA047F   [8]  68 D1 C4 09 00 00 00 00
  can0  19FA047F   [8]  69 F2 1C 2D 35 A1 67 F0
  can0  19FA047F   [8]  6A 0A 00 00 00 00 F2 46
  can0  19FA047F   [8]  6B A2 0D A2 1C 00 00 00
  can0  19FA047F   [8]  6C 00 00 00 F2 56 50 1D
  can0  19FA047F   [8]  6D A2 1C 00 00 00 00 00
  can0  19FA047F   [8]  6E 00 F2 46 97 0B DC 17
  can0  19FA047F   [8]  6F B8 0B 00 00 00 00 F2
  can0  19FA047F   [8]  70 56 FF 1D F3 1B 54 0B
  can0  19FA047F   [8]  71 00 00 00 00 F2 57 7F
  can0  19FA047F   [8]  72 25 42 CF F0 0A 00 00
  can0  19FA047F   [8]  73 00 00 F2 47 B9 11 FE
  can0  19FA047F   [8]  74 3B E4 0C 00 00 00 00
  can0  19FA047F   [8]  75 F2 FF FF FF FF FF FF
  can0  0DF0107F   [8]  00 F0 74 40 C0 CA 97 0A
  can0  19FA037F   [8]  00 D3 BE 00 18 01 FF 7F
  can0  1DF11A7F   [8]  00 F6 FF FF F6 F5 FF FF
  can0  0DF11980   [8]  00 FF 7F 95 00 03 00 FF
  can0  09FD0207   [8]  00 00 00 EB 04 FA FF FF
  can0  09F8027F   [8]  00 FC FF FF 00 00 FF FF
  can0  09F8017F   [8]  E8 AC 51 19 BE AB 6D D5
  can0  09F11280   [8]  00 A0 99 FF 7F F6 F5 FD
  can0  0DF11380   [8]  00 C9 A5 FE FF CA 97 0A
  can0  09FD0207   [8]  00 00 00 CB 04 FA FF FF
  can0  09F8027F   [8]  00 FC FF FF 00 00 FF FF
  can0  09F8017F   [8]  E8 AC 51 19 BE AB 6D D5
  can0  09F11280   [8]  00 A0 99 FF 7F F6 F5 FD
  can0  0DF11380   [8]  00 7B 34 FE FF 00 FF FF
  can0  1DF11A02   [8]  16 FF FF FF F6 F5 FF FF
  can0  1DF11A05   [8]  00 FF FF FF F6 F5 FF FF
  can0  09FD0207   [8]  00 00 00 C9 04 FA FF FF
  can0  09F8027F   [8]  00 FC FF FF 00 00 FF FF
  can0  09F8017F   [8]  E8 AC 51 19 BE AB 6D D5
  can0  09F11280   [8]  00 9F 99 FF 7F F6 F5 FD
  can0  0DF11380   [8]  00 C5 DD FD FF 00 FF FF
  can0  09FD0207   [8]  00 00 00 D2 04 FA FF FF
  can0  09F8027F   [8]  00 FC FF FF 00 00 FF FF
  can0  09F8017F   [8]  E8 AC 51 19 BE AB 6D D5
  can0  09F11280   [8]  00 9C 99 FF 7F F6 F5 FD
  can0  0DF11380   [8]  00 46 AE FD FF 00 FF FF
  can0  09FD0207   [8]  00 00 00 EB 04 FA FF FF
  can0  09F8027F   [8]  00 FC FF FF 00 00 FF FF
  can0  09F8017F   [8]  E8 AC 51 19 BE AB 6D D5
  can0  09F11280   [8]  00 9C 99 FF 7F F6 F5 FD
  can0  0DF11380   [8]  00 2F DF FD FF 00 FF FF
  can0  09FD0207   [8]  00 00 00 F5 04 FA FF FF
  can0  09F8027F   [8]  00 FC FF FF 00 00 FF FF
  can0  09F8017F   [8]  E8 AC 51 19 BE AB 6D D5
  can0  09F11280   [8]  00 9B 99 FF 7F F6 F5 FD
  can0  0DF11380   [8]  00 FD 90 FD FF 00 FF FF
  can0  09FD0207   [8]  00 00 00 D4 04 FA FF FF
  can0  09F8027F   [8]  00 FC FF FF 00 00 FF FF
  can0  09F8017F   [8]  E8 AC 51 19 BE AB 6D D5
  can0  09F11280   [8]  00 9C 99 FF 7F F6 F5 FD
  can0  0DF11380   [8]  00 F6 01 FE FF 00 FF FF
  can0  09FD0207   [8]  00 00 00 C4 04 FA FF FF
  can0  09F8027F   [8]  00 FC FF FF 00 00 FF FF
  can0  09F8017F   [8]  E8 AC 51 19 BE AB 6D D5
  can0  09F11280   [8]  00 A1 99 FF 7F F6 F5 FD
  can0  0DF11380   [8]  00 41 ED FD FF 00 FF FF
  can0  09FD0207   [8]  00 00 00 F5 04 FA FF FF
  can0  09F8027F   [8]  00 FC FF FF 00 00 FF FF
  can0  09F8017F   [8]  E8 AC 51 19 BE AB 6D D5
  can0  09F11280   [8]  00 9E 99 FF 7F F6 F5 FD
  can0  0DF11380   [8]  00 72 45 FE FF 00 FF FF
  can0  09FD0207   [8]  00 00 00 CF 04 FA FF FF
  can0  09F8027F   [8]  00 FC FF FF 00 00 FF FF
  can0  09F8017F   [8]  E8 AC 51 19 BE AB 6D D5
  can0  09F11280   [8]  00 9F 99 FF 7F F6 F5 FD
  can0  0DF11380   [8]  00 A4 EC FD FF 00 FF FF
  can0  0DF8057F   [8]  80 2B 00 74 40 D0 F1 97
  can0  0DF8057F   [8]  81 0A 00 10 FF ED F5 21
  can0  0DF8057F   [8]  82 E5 05 00 A9 F1 8F F6
  can0  0DF8057F   [8]  83 88 16 F6 90 BA C5 03
  can0  0DF8057F   [8]  84 00 00 00 00 12 FC 00
  can0  0DF8057F   [8]  85 6E 00 54 01 E1 F2 FF
  can0  0DF8057F   [8]  86 FF 00 FF FF FF FF FF
  can0  19FA047F   [8]  80 93 00 FF 0C 01 A2 1C
  can0  19FA047F   [8]  81 16 22 C4 09 00 00 00
  can0  19FA047F   [8]  82 00 F2 03 39 19 E7 46
  can0  19FA047F   [8]  83 B8 0B 00 00 00 00 F2
  can0  19FA047F   [8]  84 04 DC 08 68 21 A4 06
  can0  19FA047F   [8]  85 00 00 00 00 F2 0B 5C
  can0  19FA047F   [8]  86 10 39 28 40 06 00 00
  can0  19FA047F   [8]  87 00 00 F2 11 45 2A FC
  can0  19FA047F   [8]  88 D1 C4 09 00 00 00 00
  can0  19FA047F   [8]  89 F2 1C 2D 35 A1 67 F0
  can0  19FA047F   [8]  8A 0A 00 00 00 00 F2 46
  can0  19FA047F   [8]  8B A2 0D A2 1C 00 00 00
  can0  19FA047F   [8]  8C 00 00 00 F2 56 50 1D
  can0  19FA047F   [8]  8D A2 1C 00 00 00 00 00
  can0  19FA047F   [8]  8E 00 F2 46 97 0B DC 17
  can0  19FA047F   [8]  8F B8 0B 00 00 00 00 F2
  can0  19FA047F   [8]  90 56 FF 1D F3 1B 54 0B
  can0  19FA047F   [8]  91 00 00 00 00 F2 57 7F
  can0  19FA047F   [8]  92 25 42 CF F0 0A 00 00
  can0  19FA047F   [8]  93 00 00 F2 47 B9 11 FE
  can0  19FA047F   [8]  94 3B E4 0C 00 00 00 00
  can0  19FA047F   [8]  95 F2 FF FF FF FF FF FF
  can0  0DF0107F   [8]  00 F0 74 40 D0 F1 97 0A
  can0  19FA037F   [8]  00 D3 6E 00 18 01 FF 7F
  can0  1DF11A7F   [8]  00 F6 FF FF F6 F5 FF FF
  can0  0DF11980   [8]  00 FF 7F 9A 00 0B 00 FF
  can0  09FD0207   [8]  00 00 00 C7 04 FA FF FF
  can0  09F8027F   [8]  00 FC FF FF 00 00 FF FF
  can0  09F8017F   [8]  E8 AC 51 19 BE AB 6D D5
  can0  09F11280   [8]  00 9E 99 FF 7F F6 F5 FD
  can0  0DF11380   [8]  00 03 DA FD FF F1 97 0A
  can0  09FD0207   [8]  00 00 00 C9 04 FA FF FF
  can0  1DF11A02   [8]  16 FF FF FF F6 F5 FF FF
  can0  09F8027F   [8]  00 FC FF FF 00 00 FF FF
  can0  09F8017F   [8]  E8 AC 51 19 BE AB 6D D5
  can0  09F11280   [8]  00 9E 99 FF 7F F6 F5 FD
  can0  0DF11380   [8]  00 7C 80 FE FF 00 FF FF
  can0  1DF11A05   [8]  00 FF FF FF F6 F5 FF FF
  can0  09FD0207   [8]  00 00 00 B6 04 FA FF FF
  can0  09F8027F   [8]  00 FC FF FF 00 00 FF FF
  can0  09F8017F   [8]  E8 AC 51 19 BE AB 6D D5
  can0  09F11280   [8]  00 A1 99 FF 7F F6 F5 FD
  can0  0DF11380   [8]  00 2A D9 FE FF 00 FF FF
  can0  09FD0207   [8]  00 00 00 AE 04 FA FF FF
  can0  09F8027F   [8]  00 FC FF FF 00 00 FF FF
  can0  09F8017F   [8]  E8 AC 51 19 BE AB 6D D5
  can0  09F11280   [8]  00 9F 99 FF 7F F6 F5 FD
  can0  0DF11380   [8]  00 AE 47 FF FF 00 FF FF
  can0  09FD0207   [8]  00 00 00 CF 04 FA FF FF
  can0  09F8027F   [8]  00 FC FF FF 00 00 FF FF
  can0  09F8017F   [8]  E8 AC 51 19 BE AB 6D D5
  can0  09F11280   [8]  00 A2 99 FF 7F F6 F5 FD
  can0  0DF11380   [8]  00 0B AB FF FF 00 FF FF
  can0  09FD0207   [8]  00 00 00 AE 04 FA FF FF
  can0  09F8027F   [8]  00 FC FF FF 00 00 FF FF
  can0  09F8017F   [8]  E8 AC 51 19 BE AB 6D D5
  can0  09F11280   [8]  00 A0 99 FF 7F F6 F5 FD
  can0  0DF11380   [8]  00 80 1F FF FF 00 FF FF
  can0  09FD0207   [8]  00 00 00 DC 04 FA FF FF
  can0  09F8027F   [8]  00 FC FF FF 00 00 FF FF
  can0  09F8017F   [8]  E8 AC 51 19 BE AB 6D D5
  can0  09F11280   [8]  00 9F 99 FF 7F F6 F5 FD
  can0  0DF11380   [8]  00 22 59 FF FF 00 FF FF
  can0  09FD0207   [8]  00 00 00 F5 04 FA FF FF
  can0  09F8027F   [8]  00 FC FF FF 00 00 FF FF
  can0  09F8017F   [8]  E8 AC 51 19 BE AB 6D D5
  can0  09F11280   [8]  00 A0 99 FF 7F F6 F5 FD
  can0  0DF11380   [8]  00 69 31 FF FF 00 FF FF
  can0  09FD0207   [8]  00 00 00 ED 04 FA FF FF
  can0  09F8027F   [8]  00 FC FF FF 00 00 FF FF
  can0  09F8017F   [8]  E8 AC 51 19 BE AB 6D D5
  can0  09F11280   [8]  00 A1 99 FF 7F F6 F5 FD
  can0  0DF11380   [8]  00 2E 2C FF FF 00 FF FF
  can0  09FD0207   [8]  00 00 00 D2 04 FA FF FF
  can0  09F8027F   [8]  00 FC FF FF 00 00 FF FF
  can0  09F8017F   [8]  E8 AC 51 19 BE AB 6D D5
  can0  09F11280   [8]  00 A0 99 FF 7F F6 F5 FD
  can0  0DF11380   [8]  00 55 27 FF FF 00 FF FF
  can0  0DF8057F   [8]  A0 2B 00 74 40 E0 18 98
  can0  0DF8057F   [8]  A1 0A 00 10 FF ED F5 21
  can0  0DF8057F   [8]  A2 E5 05 00 A9 F1 8F F6
  can0  0DF8057F   [8]  A3 88 16 F6 90 BA C5 03
  can0  0DF8057F   [8]  A4 00 00 00 00 12 FC 00
  can0  0DF8057F   [8]  A5 6E 00 D1 00 E1 F2 FF
  can0  0DF8057F   [8]  A6 FF 00 FF FF FF FF FF
  can0  19FA047F   [8]  A0 93 00 FF 0C 01 A2 1C
  can0  19FA047F   [8]  A1 16 22 28 0A 00 00 00
  can0  19FA047F   [8]  A2 00 F2 03 39 19 E7 46
  can0  19FA047F   [8]  A3 B8 0B 00 00 00 00 F2
  can0  19FA047F   [8]  A4 04 DC 08 68 21 A4 06
  can0  19FA047F   [8]  A5 00 00 00 00 F2 0B 5C
  can0  19FA047F   [8]  A6 10 39 28 40 06 00 00
  can0  19FA047F   [8]  A7 00 00 F2 11 45 2A FC
  can0  19FA047F   [8]  A8 D1 C4 09 00 00 00 00
  can0  19FA047F   [8]  A9 F2 1C 2D 35 A1 67 8C
  can0  19FA047F   [8]  AA 0A 00 00 00 00 F2 46
  can0  19FA047F   [8]  AB A2 0D A2 1C 00 00 00
  can0  19FA047F   [8]  AC 00 00 00 F2 56 50 1D
  can0  19FA047F   [8]  AD A2 1C 00 00 00 00 00
  can0  19FA047F   [8]  AE 00 F2 46 97 0B DC 17
  can0  19FA047F   [8]  AF 54 0B 00 00 00 00 F2
  can0  19FA047F   [8]  B0 56 FF 1D F3 1B 54 0B
  can0  19FA047F   [8]  B1 00 00 00 00 F2 57 7F
  can0  19FA047F   [8]  B2 25 42 CF F0 0A 00 00
  can0  19FA047F   [8]  B3 00 00 F2 47 B9 11 FE
  can0  19FA047F   [8]  B4 3B E4 0C 00 00 00 00
  can0  19FA047F   [8]  B5 F2 FF FF FF FF FF FF
  can0  0DF0107F   [8]  00 F0 74 40 E0 18 98 0A
  can0  19FA037F   [8]  00 D3 6E 00 B4 00 FF 7F
  can0  1DF11A7F   [8]  00 F6 FF FF F6 F5 FF FF
  can0  0DF11980   [8]  00 FF 7F 9C 00 08 00 FF
