;$FILEVERSION=1.1
;$STARTTIME=42176.7577227546
;
;   E:\data\biz\Auteko\Projekte\Bavaria IDC10\Technik\NMEA2000\Traces\2015-06-21 Versuche Werkstatt\16_Garmin stuff.trc
;
;   Start time: 2015-06-21 18:11:07.246.0
;
;   Message Number
;   |         Time Offset (ms)
;   |         |        Type
;   |         |        |        ID (hex)
;   |         |        |        |     Data Length Code
;   |         |        |        |     |   Data Bytes (hex) ...
;   |         |        |        |     |   |
;---+--   ----+----  --+--  ----+---  +  -+ -- -- -- -- -- -- --
     1)        48.6  Rx     09F11201  8  FF 50 7A FF 7F FF 7F FD 
     2)        49.2  Rx     09F10D01  8  00 F8 FF 7F 5F B8 FF FF 
     3)        62.2  Rx     09F21406  8  01 75 05 FF 7F FF FF FF 
     4)       149.3  Rx     09F11201  8  FF 50 7A FF 7F FF 7F FD 
     5)       149.9  Rx     09F10D01  8  00 F8 FF 7F 5F B8 FF FF 
     6)       162.2  Rx     09F21406  8  01 75 05 FF 7F FF FF FF 
     7)       189.3  Rx     1DEFFF09  8  C0 0A E5 98 6C 07 02 02 
     8)       189.9  Rx     1DEFFF09  8  C1 16 00 01 00 FF FF FF 
     9)       190.4  Rx     19F11A09  6  FF FF DF 40 FF 7F 
    10)       192.3  Rx     1DEFFF06  8  60 0A E5 98 9B 08 04 04 
    11)       192.8  Rx     1DEFFF06  8  61 01 00 33 E3 FF FF FF 
    12)       202.5  Rx     1DEFFF04  8  20 26 E5 98 FC 03 08 08 
    13)       203.2  Rx     1DEFFF04  8  21 01 00 00 00 F0 53 BD 
    14)       203.9  Rx     1DEFFF04  8  22 1C 00 CD 78 C0 00 00 
    15)       204.5  Rx     1DEFFF04  8  23 00 00 FF FF FF FF 00 
    16)       205.1  Rx     1DEFFF04  8  24 00 00 00 FF FF FF FF 
    17)       205.8  Rx     1DEFFF04  8  25 00 00 02 00 FF FF FF 
    18)       250.0  Rx     09F11201  8  FF 50 7A FF 7F FF 7F FD 
    19)       250.6  Rx     09F10D01  8  00 F8 FF 7F 5F B8 FF FF 
    20)       262.2  Rx     09F21406  8  01 75 05 FF 7F FF FF FF 
    21)       278.5  Rx     1DEFFF01  8  00 CE E5 98 D8 04 04 04 
    22)       279.1  Rx     1DEFFF01  8  01 00 00 7A 44 A9 65 48 
    23)       279.7  Rx     1DEFFF01  8  02 40 FB B0 E9 37 00 00 
    24)       280.3  Rx     1DEFFF01  8  03 00 00 6F 12 03 3B 3E 
    25)       280.8  Rx     1DEFFF09  8  E0 11 E5 98 E7 08 0A 0A 
    26)       281.4  Rx     1DEFFF01  8  04 0A 24 43 C2 B8 32 3E 
    27)       281.9  Rx     1DEFFF09  8  E1 03 01 03 0D DB A6 D2 
    28)       282.5  Rx     1DEFFF01  8  05 A6 0A 06 3F 2C 01 70 
    29)       283.1  Rx     1DEFFF09  8  E2 CA 02 11 00 FF FF FF 
    30)       283.6  Rx     1DEFFF01  8  06 17 F4 01 70 17 5A 00 
    31)       284.2  Rx     1DEFFF01  8  07 0A 2D 06 E4 00 01 01 
    32)       284.8  Rx     1DEFFF01  8  08 00 00 01 04 3E 00 49 
    33)       285.4  Rx     1DEFFF01  8  09 27 49 27 17 44 42 32 
    34)       286.0  Rx     1DEFFF01  8  0A 32 01 01 00 01 01 01 
    35)       286.6  Rx     1DEFFF01  8  0B 01 01 01 00 01 01 00 
    36)       287.2  Rx     1DEFFF01  8  0C 01 00 00 74 B5 51 40 
    37)       287.7  Rx     1DEFFF01  8  0D 0A 0B 0C 00 FF 04 01 
    38)       288.4  Rx     1DEFFF01  8  0E 00 00 03 01 00 02 FF 
    39)       289.0  Rx     1DEFFF01  8  0F 00 00 00 90 00 0A FF 
    40)       289.6  Rx     1DEFFF01  8  10 FF FF 01 00 00 00 00 
    41)       290.2  Rx     1DEFFF01  8  11 4A 9F A4 41 F2 8B C5 
    42)       290.8  Rx     1DEFFF01  8  12 40 02 00 00 00 0F 00 
    43)       291.4  Rx     1DEFFF01  8  13 02 00 98 00 00 00 00 
    44)       292.0  Rx     1DEFFF01  8  14 0C 5A 64 E8 03 00 0C 
    45)       292.6  Rx     1DEFFF01  8  15 00 00 00 41 00 00 80 
    46)       293.2  Rx     1DEFFF01  8  16 3F 00 00 80 3F 00 00 
    47)       293.8  Rx     1DEFFF01  8  17 80 3F 34 33 AB 41 CB 
    48)       294.3  Rx     1DEFFF01  8  18 A1 45 3E AE 58 B7 40 
    49)       294.9  Rx     1DEFFF01  8  19 00 01 01 00 2D 2D 0F 
    50)       295.5  Rx     1DEFFF01  8  1A 00 00 32 01 00 00 00 
    51)       296.2  Rx     1DEFFF01  8  1B 00 00 F3 66 DF 3F FF 
    52)       296.8  Rx     1DEFFF01  8  1C FF 01 00 FF FF 01 00 
    53)       297.3  Rx     1DEFFF01  8  1D 20 00 04 00 FF FF FF 
    54)       297.9  Rx     1DEFFF01  8  20 5E E5 98 14 05 04 04 
    55)       298.5  Rx     1DEFFF01  8  21 00 00 00 00 1F 00 00 
    56)       299.1  Rx     1DEFFF01  8  22 00 00 00 00 00 75 42 
    57)       299.7  Rx     1DEFFF01  8  23 4A 40 38 91 48 40 8A 
    58)       300.3  Rx     1DEFFF01  8  24 65 48 40 60 74 5F 3D 
    59)       300.9  Rx     1DEFFF01  8  25 CE 9E CD B9 00 00 80 
    60)       301.5  Rx     1DEFFF01  8  26 3F 00 00 E5 FE 05 00 
    61)       302.1  Rx     1DEFFF01  8  27 02 10 00 00 00 00 00 
    62)       302.7  Rx     1DEFFF01  8  28 00 00 00 1F 00 00 00 
    63)       303.7  Rx     1DEFFF01  8  29 00 00 00 00 5C 05 00 
    64)       304.3  Rx     1DEFFF01  8  2A 00 00 00 27 BE FF FF 
    65)       304.9  Rx     1DEFFF01  8  2B 00 00 00 00 00 00 00 
    66)       305.5  Rx     1DEFFF01  8  2C 19 00 00 00 00 00 00 
    67)       306.1  Rx     1DEFFF01  8  2D 00 00 00 20 FF FF FF 
    68)       350.7  Rx     09F11201  8  FF 4F 7A FF 7F FF 7F FD 
    69)       351.3  Rx     09F10D01  8  00 F8 FF 7F 5F B8 FF FF 
    70)       362.2  Rx     09F21406  8  01 75 05 FF 7F FF FF FF 
    71)       451.4  Rx     09F11201  8  FF 4F 7A FF 7F FF 7F FD 
    72)       452.0  Rx     09F10D01  8  00 F8 FF 7F 5F B8 FF FF 
    73)       462.2  Rx     09F21406  8  01 75 05 FF 7F FF FF FF 
    74)       552.1  Rx     09F11201  8  FF 4F 7A FF 7F FF 7F FD 
    75)       552.7  Rx     09F10D01  8  00 F8 FF 7F 5F B8 FF FF 
    76)       562.3  Rx     09F21406  8  01 75 05 FF 7F FF FF FF 
    77)       652.8  Rx     09F11201  8  FF 50 7A FF 7F FF 7F FD 
    78)       653.7  Rx     09F10D01  8  00 F8 FF 7F 5F B8 FF FF 
    79)       662.2  Rx     09F21406  8  01 75 05 FF 7F FF FF FF 
    80)       748.7  Rx     0DF90404  8  A0 22 FF FF FF FF FF 0F 
    81)       749.3  Rx     0DF90404  8  A1 FF FF FF FF FF FF FF 
    82)       750.0  Rx     0DF90404  8  A2 FF FF FF FF FF FF FF 
    83)       750.7  Rx     0DF90404  8  A3 FF FF FF FF FF FF FF 
    84)       751.3  Rx     0DF90404  8  A4 7F FF FF FF 7F FF 7F 
    85)       752.0  Rx     1DEFFF04  8  40 2A E5 98 61 06 02 02 
    86)       752.6  Rx     1DEFFF04  8  41 FF FF FF FF 03 03 00 
    87)       753.3  Rx     1DEFFF04  8  42 00 FF FF FF FF FF FF 
    88)       753.9  Rx     1DEFFF04  8  43 FF FF FF FF 00 00 FF 
    89)       754.5  Rx     09F11201  8  FF 51 7A FF 7F FF 7F FD 
    90)       755.1  Rx     1DEFFF04  8  44 FF FF 7F FF FF FF 7F 
    91)       755.7  Rx     09F10D01  8  00 F8 FF 7F 5F B8 FF FF 
    92)       756.3  Rx     1DEFFF04  8  45 FF FF FF 7F 00 00 FF 
    93)       756.9  Rx     1DEFFF04  8  46 7F FF FF FF FF FF FF 
    94)       757.6  Rx     0DF90304  8  FF FF FF FF FF 7F FF FF 
    95)       758.2  Rx     1DEFFF04  8  60 1D E5 98 12 07 02 02 
    96)       758.9  Rx     1DEFFF04  8  61 FF FF FF FF FF FF FF 
    97)       759.6  Rx     1DEFFF04  8  62 FF FF FF FF FF FF FF 
    98)       760.2  Rx     1DEFFF04  8  63 FF FF FF FF 7F FF FF 
    99)       760.9  Rx     1DEFFF04  8  64 FF 7F FF FF FF FF FF 
   100)       762.2  Rx     09F21406  8  01 75 05 FF 7F FF FF FF 
   101)       854.2  Rx     09F11201  8  FF 51 7A FF 7F FF 7F FD 
   102)       854.9  Rx     09F10D01  8  00 F8 FF 7F 5F B8 FF FF 
   103)       862.2  Rx     09F21406  8  01 75 05 FF 7F FF FF FF 
   104)       954.9  Rx     09F11201  8  FF 51 7A FF 7F FF 7F FD 
   105)       955.5  Rx     09F10D01  8  00 F8 FF 7F 5F B8 FF FF 
   106)       962.2  Rx     09F21406  8  01 75 05 FF 7F FF FF FF 
   107)      1006.7  Rx     1CEFFF01  7  E5 98 5B 07 04 04 00 
   108)      1055.6  Rx     09F11201  8  FF 52 7A FF 7F FF 7F FD 
   109)      1056.3  Rx     09F10D01  8  00 F8 FF 7F 5F B8 FF FF 
   110)      1062.2  Rx     09F21406  8  01 75 05 FF 7F FF FF FF 
   111)      1133.3  Rx     1DEFFF04  8  80 26 E5 98 FC 03 08 08 
   112)      1133.9  Rx     1DEFFF04  8  81 01 00 00 00 F0 53 BD 
   113)      1134.6  Rx     1DEFFF04  8  82 1C 00 CD 78 C0 00 00 
   114)      1135.2  Rx     1DEFFF04  8  83 00 00 FF FF FF FF 00 
   115)      1135.8  Rx     1DEFFF04  8  84 00 00 00 FF FF FF FF 
   116)      1136.5  Rx     1DEFFF04  8  85 00 00 02 00 FF FF FF 
   117)      1156.4  Rx     09F11201  8  FF 51 7A FF 7F FF 7F FD 
   118)      1157.0  Rx     09F10D01  8  00 F8 FF 7F 5F B8 FF FF 
   119)      1162.3  Rx     09F21406  8  01 75 05 FF 7F FF FF FF 
   120)      1189.3  Rx     1DEFFF09  8  00 0A E5 98 6C 07 02 02 
   121)      1189.9  Rx     1DEFFF09  8  01 16 00 01 00 FF FF FF 
   122)      1190.4  Rx     19F11A09  6  FF FF DF 40 FF 7F 
   123)      1192.3  Rx     1DEFFF06  8  80 0A E5 98 9B 08 04 04 
   124)      1192.9  Rx     1DEFFF06  8  81 01 00 33 E3 FF FF FF 
   125)      1257.1  Rx     09F11201  8  FF 51 7A FF 7F FF 7F FD 
   126)      1257.7  Rx     09F10D01  8  00 F8 FF 7F 5F B8 FF FF 
   127)      1262.3  Rx     09F21406  8  01 75 05 FF 7F FF FF FF 
   128)      1280.4  Rx     1DEFFF09  8  20 11 E5 98 E7 08 0A 0A 
   129)      1280.9  Rx     1DEFFF09  8  21 03 01 03 0D DB A6 D2 
   130)      1281.5  Rx     1DEFFF09  8  22 CA 02 11 00 FF FF FF 
   131)      1357.8  Rx     09F11201  8  FF 51 7A FF 7F FF 7F FD 
   132)      1358.4  Rx     09F10D01  8  00 F8 FF 7F 5F B8 FF FF 
   133)      1362.3  Rx     09F21406  8  01 75 05 FF 7F FF FF FF 
   134)      1458.5  Rx     09F11201  8  FF 50 7A FF 7F FF 7F FD 
   135)      1459.1  Rx     09F10D01  8  00 F8 FF 7F 5F B8 FF FF 
   136)      1462.3  Rx     09F21406  8  01 75 05 FF 7F FF FF FF 
   137)      1559.2  Rx     09F11201  8  FF 50 7A FF 7F FF 7F FD 
   138)      1559.8  Rx     09F10D01  8  00 F8 FF 7F 5F B8 FF FF 
   139)      1562.3  Rx     09F21406  8  01 75 05 FF 7F FF FF FF 
   140)      1659.9  Rx     09F11201  8  FF 50 7A FF 7F FF 7F FD 
   141)      1660.6  Rx     09F10D01  8  00 F8 FF 7F 5F B8 FF FF 
   142)      1662.3  Rx     09F21406  8  01 75 05 FF 7F FF FF FF 
   143)      1689.3  Rx     1CEFFF09  6  E5 98 17 05 04 04 
   144)      1748.7  Rx     0DF90404  8  C0 22 FF FF FF FF FF 0F 
   145)      1749.4  Rx     0DF90404  8  C1 FF FF FF FF FF FF FF 
   146)      1750.0  Rx     0DF90404  8  C2 FF FF FF FF FF FF FF 
   147)      1750.6  Rx     0DF90404  8  C3 FF FF FF FF FF FF FF 
   148)      1751.3  Rx     0DF90404  8  C4 7F FF FF FF 7F FF 7F 
   149)      1751.9  Rx     1DEFFF04  8  A0 2A E5 98 61 06 02 02 
   150)      1752.6  Rx     1DEFFF04  8  A1 FF FF FF FF 03 03 00 
   151)      1753.2  Rx     1DEFFF04  8  A2 00 FF FF FF FF FF FF 
   152)      1753.8  Rx     1DEFFF04  8  A3 FF FF FF FF 00 00 FF 
   153)      1754.4  Rx     1DEFFF04  8  A4 FF FF 7F FF FF FF 7F 
   154)      1755.1  Rx     1DEFFF04  8  A5 FF FF FF 7F 00 00 FF 
   155)      1755.7  Rx     1DEFFF04  8  A6 7F FF FF FF FF FF FF 
   156)      1756.4  Rx     0DF90304  8  FF FF FF FF FF 7F FF FF 
   157)      1757.0  Rx     1DEFFF04  8  C0 1D E5 98 12 07 02 02 
   158)      1757.6  Rx     1DEFFF04  8  C1 FF FF FF FF FF FF FF 
   159)      1758.3  Rx     1DEFFF04  8  C2 FF FF FF FF FF FF FF 
   160)      1758.9  Rx     1DEFFF04  8  C3 FF FF FF FF 7F FF FF 
   161)      1759.6  Rx     1DEFFF04  8  C4 FF 7F FF FF FF FF FF 
   162)      1760.6  Rx     09F11201  8  FF 50 7A FF 7F FF 7F FD 
   163)      1761.3  Rx     09F10D01  8  00 F8 FF 7F 5F B8 FF FF 
   164)      1762.3  Rx     09F21406  8  01 75 05 FF 7F FF FF FF 
   165)      1861.3  Rx     09F11201  8  FF 50 7A FF 7F FF 7F FD 
   166)      1862.0  Rx     09F10D01  8  00 F8 FF 7F 5F B8 FF FF 
   167)      1862.5  Rx     09F21406  8  01 75 05 FF 7F FF FF FF 
   168)      1962.1  Rx     09F11201  8  FF 50 7A FF 7F FF 7F FD 
   169)      1962.6  Rx     09F21406  8  01 75 05 FF 7F FF FF FF 
   170)      1963.2  Rx     09F10D01  8  00 F8 FF 7F 5F B8 FF FF 
   171)      2056.1  Rx     1CEFFF01  7  E5 98 5B 07 04 04 00 
   172)      2062.3  Rx     09F21406  8  01 75 05 FF 7F FF FF FF 
   173)      2062.9  Rx     09F11201  8  FF 50 7A FF 7F FF 7F FD 
   174)      2063.5  Rx     09F10D01  8  00 F8 FF 7F 5F B8 FF FF 
   175)      2133.4  Rx     1DEFFF04  8  E0 26 E5 98 FC 03 08 08 
   176)      2134.0  Rx     1DEFFF04  8  E1 01 00 00 00 F0 53 BD 
   177)      2134.6  Rx     1DEFFF04  8  E2 1C 00 CD 78 C0 00 00 
   178)      2135.2  Rx     1DEFFF04  8  E3 00 00 FF FF FF FF 00 
   179)      2135.9  Rx     1DEFFF04  8  E4 00 00 00 FF FF FF FF 
   180)      2136.5  Rx     1DEFFF04  8  E5 00 00 02 00 FF FF FF 
   181)      2162.3  Rx     09F21406  8  01 75 05 FF 7F FF FF FF 
   182)      2163.6  Rx     09F11201  8  FF 50 7A FF 7F FF 7F FD 
   183)      2164.2  Rx     09F10D01  8  00 F8 FF 7F 5F B8 FF FF 
   184)      2189.4  Rx     1DEFFF09  8  40 0A E5 98 6C 07 02 02 
   185)      2190.0  Rx     1DEFFF09  8  41 16 00 01 00 FF FF FF 
   186)      2190.5  Rx     19F11A09  6  FF FF DF 40 FF 7F 
   187)      2192.3  Rx     1DEFFF06  8  A0 0A E5 98 9B 08 04 04 
   188)      2192.9  Rx     1DEFFF06  8  A1 01 00 33 E3 FF FF FF 
   189)      2262.3  Rx     09F21406  8  01 75 05 FF 7F FF FF FF 
   190)      2264.2  Rx     09F11201  8  FF 51 7A FF 7F FF 7F FD 
   191)      2264.8  Rx     09F10D01  8  00 F8 FF 7F 5F B8 FF FF 
   192)      2278.6  Rx     1DEFFF01  8  40 CE E5 98 D8 04 04 04 
   193)      2279.2  Rx     1DEFFF01  8  41 00 00 7A 44 8C 67 48 
   194)      2279.8  Rx     1DEFFF01  8  42 40 FB B0 E9 37 00 00 
   195)      2280.4  Rx     1DEFFF01  8  43 00 00 6F 12 03 3B 3E 
   196)      2280.9  Rx     1DEFFF09  8  60 11 E5 98 E7 08 0A 0A 
   197)      2281.5  Rx     1DEFFF01  8  44 0A 24 43 C2 B8 32 3E 
   198)      2282.1  Rx     1DEFFF09  8  61 03 01 03 0D DB A6 D2 
   199)      2282.6  Rx     1DEFFF01  8  45 A6 0A 06 3F 2C 01 70 
   200)      2283.2  Rx     1DEFFF09  8  62 CA 02 11 00 FF FF FF 
   201)      2283.7  Rx     1DEFFF01  8  46 17 F4 01 70 17 5A 00 
   202)      2284.3  Rx     1DEFFF01  8  47 0A 2D 06 E4 00 01 01 
   203)      2284.9  Rx     1DEFFF01  8  48 00 00 01 04 3E 00 49 
   204)      2285.5  Rx     1DEFFF01  8  49 27 49 27 17 44 42 32 
   205)      2286.1  Rx     1DEFFF01  8  4A 32 01 01 00 01 01 01 
   206)      2286.7  Rx     1DEFFF01  8  4B 01 01 01 00 01 01 00 
   207)      2287.3  Rx     1DEFFF01  8  4C 01 00 00 74 B5 51 40 
   208)      2287.9  Rx     1DEFFF01  8  4D 0A 0B 0C 00 FF 04 01 
   209)      2288.5  Rx     1DEFFF01  8  4E 00 00 03 01 00 02 FF 
   210)      2289.1  Rx     1DEFFF01  8  4F 00 00 00 90 00 0A FF 
   211)      2289.7  Rx     1DEFFF01  8  50 FF FF 01 00 00 00 00 
   212)      2290.2  Rx     1DEFFF01  8  51 4A 9F A4 41 F2 8B C5 
   213)      2290.8  Rx     1DEFFF01  8  52 40 02 00 00 00 0F 00 
   214)      2291.4  Rx     1DEFFF01  8  53 02 00 98 00 00 00 00 
   215)      2292.0  Rx     1DEFFF01  8  54 0C 5A 64 E8 03 00 0C 
   216)      2292.6  Rx     1DEFFF01  8  55 00 00 00 41 00 00 80 
   217)      2293.2  Rx     1DEFFF01  8  56 3F 00 00 80 3F 00 00 
   218)      2293.8  Rx     1DEFFF01  8  57 80 3F 34 33 AB 41 CB 
   219)      2294.4  Rx     1DEFFF01  8  58 A1 45 3E AE 58 B7 40 
   220)      2295.0  Rx     1DEFFF01  8  59 00 01 01 00 2D 2D 0F 
   221)      2295.6  Rx     1DEFFF01  8  5A 00 00 32 01 00 00 00 
   222)      2296.2  Rx     1DEFFF01  8  5B 00 00 F3 66 DF 3F FF 
   223)      2296.8  Rx     1DEFFF01  8  5C FF 01 00 FF FF 01 00 
   224)      2297.4  Rx     1DEFFF01  8  5D 20 00 04 00 FF FF FF 
   225)      2298.0  Rx     1DEFFF01  8  60 5E E5 98 14 05 04 04 
   226)      2298.6  Rx     1DEFFF01  8  61 00 00 00 00 1F 00 00 
   227)      2299.2  Rx     1DEFFF01  8  62 00 00 00 00 00 63 8C 
   228)      2299.8  Rx     1DEFFF01  8  63 4A 40 E5 DA 48 40 12 
   229)      2300.3  Rx     1DEFFF01  8  64 67 48 40 25 2F 63 3D 
   230)      2300.9  Rx     1DEFFF01  8  65 84 14 A4 38 00 00 80 
   231)      2301.5  Rx     1DEFFF01  8  66 3F FE FF E4 FE 05 00 
   232)      2302.1  Rx     1DEFFF01  8  67 02 10 00 00 00 00 00 
   233)      2302.7  Rx     1DEFFF01  8  68 00 00 00 1F 00 00 00 
   234)      2303.3  Rx     1DEFFF01  8  69 00 00 00 00 5C 05 00 
   235)      2303.9  Rx     1DEFFF01  8  6A 00 00 00 27 BE FF FF 
   236)      2304.5  Rx     1DEFFF01  8  6B 00 00 00 00 00 00 00 
   237)      2305.2  Rx     1DEFFF01  8  6C 19 00 00 00 00 00 00 
   238)      2305.8  Rx     1DEFFF01  8  6D 00 00 00 20 FF FF FF 
   239)      2362.4  Rx     09F21406  8  01 75 05 FF 7F FF FF FF 
   240)      2364.9  Rx     09F11201  8  FF 51 7A FF 7F FF 7F FD 
   241)      2365.6  Rx     09F10D01  8  00 F8 FF 7F 5F B8 FF FF 
   242)      2462.3  Rx     09F21406  8  01 75 05 FF 7F FF FF FF 
   243)      2465.6  Rx     09F11201  8  FF 52 7A FF 7F FF 7F FD 
   244)      2466.2  Rx     09F10D01  8  00 F8 FF 7F 5F B8 FF FF 
   245)      2562.4  Rx     09F21406  8  01 75 05 FF 7F FF FF FF 
   246)      2566.3  Rx     09F11201  8  FF 52 7A FF 7F FF 7F FD 
   247)      2567.0  Rx     09F10D01  8  00 F8 FF 7F 5F B8 FF FF 
   248)      2662.3  Rx     09F21406  8  01 75 05 FF 7F FF FF FF 
   249)      2667.0  Rx     09F11201  8  FF 52 7A FF 7F FF 7F FD 
   250)      2667.7  Rx     09F10D01  8  00 F8 FF 7F 5F B8 FF FF 
   251)      2748.8  Rx     0DF90404  8  E0 22 FF FF FF FF FF 0F 
   252)      2749.5  Rx     0DF90404  8  E1 FF FF FF FF FF FF FF 
   253)      2750.1  Rx     0DF90404  8  E2 FF FF FF FF FF FF FF 
   254)      2750.7  Rx     0DF90404  8  E3 FF FF FF FF FF FF FF 
   255)      2751.4  Rx     0DF90404  8  E4 7F FF FF FF 7F FF 7F 
   256)      2752.0  Rx     1DEFFF04  8  00 2A E5 98 61 06 02 02 
   257)      2752.7  Rx     1DEFFF04  8  01 FF FF FF FF 03 03 00 
   258)      2753.3  Rx     1DEFFF04  8  02 00 FF FF FF FF FF FF 
   259)      2753.9  Rx     1DEFFF04  8  03 FF FF FF FF 00 00 FF 
   260)      2754.6  Rx     1DEFFF04  8  04 FF FF 7F FF FF FF 7F 
   261)      2755.2  Rx     1DEFFF04  8  05 FF FF FF 7F 00 00 FF 
   262)      2755.9  Rx     1DEFFF04  8  06 7F FF FF FF FF FF FF 
   263)      2756.5  Rx     0DF90304  8  FF FF FF FF FF 7F FF FF 
   264)      2757.1  Rx     1DEFFF04  8  20 1D E5 98 12 07 02 02 
   265)      2757.8  Rx     1DEFFF04  8  21 FF FF FF FF FF FF FF 
   266)      2758.4  Rx     1DEFFF04  8  22 FF FF FF FF FF FF FF 
   267)      2759.0  Rx     1DEFFF04  8  23 FF FF FF FF 7F FF FF 
   268)      2759.6  Rx     1DEFFF04  8  24 FF 7F FF FF FF FF FF 
   269)      2762.3  Rx     09F21406  8  01 75 05 FF 7F FF FF FF 
   270)      2767.8  Rx     09F11201  8  FF 52 7A FF 7F FF 7F FD 
   271)      2768.4  Rx     09F10D01  8  00 F8 FF 7F 5F B8 FF FF 
   272)      2862.3  Rx     09F21406  8  01 75 05 FF 7F FF FF FF 
   273)      2868.5  Rx     09F11201  8  FF 52 7A FF 7F FF 7F FD 
   274)      2869.1  Rx     09F10D01  8  00 F8 FF 7F 5F B8 FF FF 
   275)      2962.4  Rx     09F21406  8  01 75 05 FF 7F FF FF FF 
   276)      2969.2  Rx     09F11201  8  FF 52 7A FF 7F FF 7F FD 
   277)      2969.8  Rx     09F10D01  8  00 F8 FF 7F 5F B8 FF FF 
   278)      3062.4  Rx     09F21406  8  01 75 05 FF 7F FF FF FF 
   279)      3069.9  Rx     09F11201  8  FF 50 7A FF 7F FF 7F FD 
   280)      3070.5  Rx     09F10D01  8  00 F8 FF 7F 5F B8 FF FF 
   281)      3106.2  Rx     1CEFFF01  7  E5 98 5B 07 04 04 00 
   282)      3162.3  Rx     09F21406  8  01 75 05 FF 7F FF FF FF 
   283)      3170.6  Rx     09F11201  8  FF 50 7A FF 7F FF 7F FD 
   284)      3171.2  Rx     09F10D01  8  00 F8 FF 7F 5F B8 FF FF 
   285)      3189.4  Rx     1DEFFF09  8  80 0A E5 98 6C 07 02 02 
   286)      3190.0  Rx     1DEFFF09  8  81 16 00 01 00 FF FF FF 
   287)      3190.5  Rx     19F11A09  6  FF FF DF 40 FF 7F 
   288)      3192.3  Rx     1DEFFF06  8  C0 0A E5 98 9B 08 04 04 
   289)      3192.8  Rx     1DEFFF06  8  C1 01 00 33 E3 FF FF FF 
   290)      3208.1  Rx     1DEFFF04  8  40 26 E5 98 FC 03 08 08 
   291)      3208.8  Rx     1DEFFF04  8  41 01 00 00 00 F0 53 BD 
   292)      3209.5  Rx     1DEFFF04  8  42 1C 00 CD 78 C0 00 00 
   293)      3210.1  Rx     1DEFFF04  8  43 00 00 FF FF FF FF 00 
   294)      3210.8  Rx     1DEFFF04  8  44 00 00 00 FF FF FF FF 
   295)      3211.5  Rx     1DEFFF04  8  45 00 00 02 00 FF FF FF 
   296)      3262.2  Rx     09F21406  8  01 75 05 FF 7F FF FF FF 
   297)      3271.2  Rx     09F11201  8  FF 50 7A FF 7F FF 7F FD 
   298)      3271.8  Rx     09F10D01  8  00 F8 FF 7F 5F B8 FF FF 
   299)      3280.4  Rx     1DEFFF09  8  A0 11 E5 98 E7 08 0A 0A 
   300)      3281.0  Rx     1DEFFF09  8  A1 03 01 03 0D DB A6 D2 
   301)      3281.5  Rx     1DEFFF09  8  A2 CA 02 11 00 FF FF FF 
   302)      3362.2  Rx     09F21406  8  01 75 05 FF 7F FF FF FF 
   303)      3371.9  Rx     09F11201  8  FF 50 7A FF 7F FF 7F FD 
   304)      3372.5  Rx     09F10D01  8  00 F8 FF 7F 5F B8 FF FF 
   305)      3462.2  Rx     09F21406  8  01 75 05 FF 7F FF FF FF 
   306)      3472.6  Rx     09F11201  8  FF 51 7A FF 7F FF 7F FD 
   307)      3473.2  Rx     09F10D01  8  00 F8 FF 7F 5F B8 FF FF 
   308)      3562.2  Rx     09F21406  8  01 75 05 FF 7F FF FF FF 
   309)      3573.3  Rx     09F11201  8  FF 52 7A FF 7F FF 7F FD 
   310)      3574.0  Rx     09F10D01  8  00 F8 FF 7F 5F B8 FF FF 
   311)      3662.3  Rx     09F21406  8  01 75 05 FF 7F FF FF FF 
   312)      3674.0  Rx     09F11201  8  FF 51 7A FF 7F FF 7F FD 
   313)      3674.6  Rx     09F10D01  8  00 F8 FF 7F 5F B8 FF FF 
   314)      3748.7  Rx     0DF90404  8  00 22 FF FF FF FF FF 0F 
   315)      3749.4  Rx     0DF90404  8  01 FF FF FF FF FF FF FF 
   316)      3750.1  Rx     0DF90404  8  02 FF FF FF FF FF FF FF 
   317)      3750.8  Rx     0DF90404  8  03 FF FF FF FF FF FF FF 
   318)      3751.4  Rx     0DF90404  8  04 7F FF FF FF 7F FF 7F 
   319)      3752.1  Rx     1DEFFF04  8  60 2A E5 98 61 06 02 02 
   320)      3752.7  Rx     1DEFFF04  8  61 FF FF FF FF 03 03 00 
   321)      3753.4  Rx     1DEFFF04  8  62 00 FF FF FF FF FF FF 
   322)      3754.1  Rx     1DEFFF04  8  63 FF FF FF FF 00 00 FF 
   323)      3754.7  Rx     1DEFFF04  8  64 FF FF 7F FF FF FF 7F 
   324)      3755.4  Rx     1DEFFF04  8  65 FF FF FF 7F 00 00 FF 
   325)      3756.1  Rx     1DEFFF04  8  66 7F FF FF FF FF FF FF 
   326)      3756.7  Rx     0DF90304  8  FF FF FF FF FF 7F FF FF 
   327)      3757.4  Rx     1DEFFF04  8  80 1D E5 98 12 07 02 02 
   328)      3758.0  Rx     1DEFFF04  8  81 FF FF FF FF FF FF FF 
   329)      3758.7  Rx     1DEFFF04  8  82 FF FF FF FF FF FF FF 
   330)      3759.4  Rx     1DEFFF04  8  83 FF FF FF FF 7F FF FF 
   331)      3760.0  Rx     1DEFFF04  8  84 FF 7F FF FF FF FF FF 
   332)      3762.3  Rx     09F21406  8  01 75 05 FF 7F FF FF FF 
   333)      3774.7  Rx     09F11201  8  FF 52 7A FF 7F FF 7F FD 
   334)      3775.4  Rx     09F10D01  8  00 F8 FF 7F 5F B8 FF FF 
   335)      3789.3  Rx     1CEFFF09  6  E5 98 17 05 04 04 
   336)      3862.3  Rx     09F21406  8  01 75 05 FF 7F FF FF FF 
   337)      3875.5  Rx     09F11201  8  FF 52 7A FF 7F FF 7F FD 
   338)      3876.0  Rx     09F10D01  8  00 F8 FF 7F 5F B8 FF FF 
   339)      3962.2  Rx     09F21406  8  01 75 05 FF 7F FF FF FF 
   340)      3976.1  Rx     09F11201  8  FF 53 7A FF 7F FF 7F FD 
   341)      3976.8  Rx     09F10D01  8  00 F8 FF 7F 5F B8 FF FF 
   342)      4062.2  Rx     09F21406  8  01 75 05 FF 7F FF FF FF 
   343)      4076.9  Rx     09F11201  8  FF 53 7A FF 7F FF 7F FD 
   344)      4077.5  Rx     09F10D01  8  00 F8 FF 7F 5F B8 FF FF 
   345)      4133.4  Rx     1DEFFF04  8  A0 26 E5 98 FC 03 08 08 
   346)      4134.0  Rx     1DEFFF04  8  A1 01 00 00 00 F0 53 BD 
   347)      4134.6  Rx     1DEFFF04  8  A2 1C 00 CD 78 C0 00 00 
   348)      4135.2  Rx     1DEFFF04  8  A3 00 00 FF FF FF FF 00 
   349)      4135.9  Rx     1DEFFF04  8  A4 00 00 00 FF FF FF FF 
   350)      4136.5  Rx     1DEFFF04  8  A5 00 00 02 00 FF FF FF 
   351)      4156.1  Rx     1CEFFF01  7  E5 98 5B 07 04 04 00 
   352)      4162.2  Rx     09F21406  8  01 75 05 FF 7F FF FF FF 
   353)      4177.6  Rx     09F11201  8  FF 53 7A FF 7F FF 7F FD 
   354)      4178.2  Rx     09F10D01  8  00 F8 FF 7F 5F B8 FF FF 
   355)      4189.4  Rx     1DEFFF09  8  C0 0A E5 98 6C 07 02 02 
   356)      4190.0  Rx     1DEFFF09  8  C1 16 00 01 00 FF FF FF 
   357)      4190.5  Rx     19F11A09  6  FF FF DF 40 FF 7F 
   358)      4192.2  Rx     1DEFFF06  8  E0 0A E5 98 9B 08 04 04 
   359)      4192.8  Rx     1DEFFF06  8  E1 01 00 33 E3 FF FF FF 
   360)      4262.2  Rx     09F21406  8  01 75 05 FF 7F FF FF FF 
   361)      4278.2  Rx     09F11201  8  FF 52 7A FF 7F FF 7F FD 
   362)      4278.8  Rx     1DEFFF01  8  80 CE E5 98 D8 04 04 04 
   363)      4279.4  Rx     1DEFFF01  8  81 00 00 7A 44 3D 6A 48 
   364)      4280.0  Rx     1DEFFF01  8  82 40 FB B0 E9 37 00 00 
   365)      4280.5  Rx     1DEFFF09  8  E0 11 E5 98 E7 08 0A 0A 
   366)      4281.1  Rx     1DEFFF01  8  83 00 00 6F 12 03 3B 3E 
   367)      4281.7  Rx     1DEFFF09  8  E1 03 01 03 0D DB A6 D2 
   368)      4282.2  Rx     1DEFFF01  8  84 0A 24 43 C2 B8 32 3E 
   369)      4282.8  Rx     1DEFFF09  8  E2 CA 02 11 00 FF FF FF 
   370)      4283.3  Rx     1DEFFF01  8  85 A6 0A 06 3F 2C 01 70 
   371)      4283.9  Rx     1DEFFF01  8  86 17 F4 01 70 17 5A 00 
   372)      4284.5  Rx     1DEFFF01  8  87 0A 2D 06 E4 00 01 01 
   373)      4285.1  Rx     1DEFFF01  8  88 00 00 01 04 3E 00 49 
   374)      4285.7  Rx     1DEFFF01  8  89 27 49 27 17 44 42 32 
   375)      4286.3  Rx     1DEFFF01  8  8A 32 01 01 00 01 01 01 
   376)      4286.9  Rx     1DEFFF01  8  8B 01 01 01 00 01 01 00 
   377)      4287.5  Rx     1DEFFF01  8  8C 01 00 00 74 B5 51 40 
   378)      4288.1  Rx     1DEFFF01  8  8D 0A 0B 0C 00 FF 04 01 
   379)      4288.6  Rx     1DEFFF01  8  8E 00 00 03 01 00 02 FF 
   380)      4289.2  Rx     1DEFFF01  8  8F 00 00 00 90 00 0A FF 
   381)      4289.8  Rx     1DEFFF01  8  90 FF FF 01 00 00 00 00 
   382)      4290.4  Rx     1DEFFF01  8  91 4A 9F A4 41 F2 8B C5 
   383)      4291.0  Rx     1DEFFF01  8  92 40 02 00 00 00 0F 00 
   384)      4291.6  Rx     1DEFFF01  8  93 02 00 98 00 00 00 00 
   385)      4292.2  Rx     1DEFFF01  8  94 0C 5A 64 E8 03 00 0C 
   386)      4292.8  Rx     1DEFFF01  8  95 00 00 00 41 00 00 80 
   387)      4293.4  Rx     1DEFFF01  8  96 3F 00 00 80 3F 00 00 
   388)      4294.0  Rx     1DEFFF01  8  97 80 3F 34 33 AB 41 CB 
   389)      4294.6  Rx     1DEFFF01  8  98 A1 45 3E AE 58 B7 40 
   390)      4295.2  Rx     1DEFFF01  8  99 00 01 01 00 2D 2D 0F 
   391)      4295.8  Rx     1DEFFF01  8  9A 00 00 32 01 00 00 00 
   392)      4296.4  Rx     1DEFFF01  8  9B 00 00 F3 66 DF 3F FF 
   393)      4297.0  Rx     1DEFFF01  8  9C FF 01 00 FF FF 01 00 
   394)      4297.6  Rx     1DEFFF01  8  9D 20 00 04 00 FF FF FF 
   395)      4298.2  Rx     1DEFFF01  8  A0 5E E5 98 14 05 04 04 
   396)      4298.8  Rx     1DEFFF01  8  A1 00 00 00 00 1F 00 00 
   397)      4299.4  Rx     1DEFFF01  8  A2 00 00 00 00 00 92 4A 
   398)      4300.0  Rx     1DEFFF01  8  A3 4A 40 4D 99 48 40 46 
   399)      4300.5  Rx     1DEFFF01  8  A4 6A 48 40 F2 34 5C 3D 
   400)      4301.1  Rx     1DEFFF01  8  A5 E5 9E 2D BA 00 00 80 
   401)      4301.7  Rx     1DEFFF01  8  A6 3F 00 00 E5 FE 05 00 
   402)      4302.3  Rx     1DEFFF01  8  A7 02 10 00 00 00 00 00 
   403)      4302.9  Rx     1DEFFF01  8  A8 00 00 00 1F 00 00 00 
   404)      4303.8  Rx     1DEFFF01  8  A9 00 00 00 00 5C 05 00 
   405)      4304.4  Rx     1DEFFF01  8  AA 00 00 00 00 00 FF FF 
   406)      4305.0  Rx     1DEFFF01  8  AB 00 00 00 00 00 00 00 
   407)      4305.6  Rx     1DEFFF01  8  AC 19 00 00 00 00 00 00 
   408)      4306.2  Rx     1DEFFF01  8  AD 00 00 00 20 FF FF FF 
   409)      4306.8  Rx     09F10D01  8  00 F8 FF 7F 5F B8 FF FF 
   410)      4362.2  Rx     09F21406  8  01 75 05 FF 7F FF FF FF 
   411)      4378.9  Rx     09F11201  8  FF 50 7A FF 7F FF 7F FD 
   412)      4379.5  Rx     09F10D01  8  00 F8 FF 7F 5F B8 FF FF 
   413)      4462.2  Rx     09F21406  8  01 75 05 FF 7F FF FF FF 
   414)      4479.6  Rx     09F11201  8  FF 50 7A FF 7F FF 7F FD 
   415)      4480.2  Rx     09F10D01  8  00 F8 FF 7F 5F B8 FF FF 
   416)      4562.2  Rx     09F21406  8  01 75 05 FF 7F FF FF FF 
   417)      4580.3  Rx     09F11201  8  FF 50 7A FF 7F FF 7F FD 
   418)      4580.9  Rx     09F10D01  8  00 F8 FF 7F 5F B8 FF FF 
   419)      4662.1  Rx     09F21406  8  01 75 05 FF 7F FF FF FF 
   420)      4681.0  Rx     09F11201  8  FF 50 7A FF 7F FF 7F FD 
   421)      4681.6  Rx     09F10D01  8  00 F8 FF 7F 5F B8 FF FF 
   422)      4762.2  Rx     09F21406  8  01 75 05 FF 7F FF FF FF 
   423)      4781.7  Rx     09F11201  8  FF 51 7A FF 7F FF 7F FD 
   424)      4782.3  Rx     09F10D01  8  00 F8 FF 7F 5F B8 FF FF 
   425)      4798.6  Rx     0DF90404  8  20 22 FF FF FF FF FF 0F 
   426)      4799.3  Rx     0DF90404  8  21 FF FF FF FF FF FF FF 
   427)      4800.0  Rx     0DF90404  8  22 FF FF FF FF FF FF FF 
   428)      4800.6  Rx     0DF90404  8  23 FF FF FF FF FF FF FF 
   429)      4801.3  Rx     0DF90404  8  24 7F FF FF FF 7F FF 7F 
   430)      4801.9  Rx     1DEFFF04  8  C0 2A E5 98 61 06 02 02 
   431)      4802.5  Rx     1DEFFF04  8  C1 FF FF FF FF 03 03 00 
   432)      4803.1  Rx     1DEFFF04  8  C2 00 FF FF FF FF FF FF 
   433)      4803.8  Rx     1DEFFF04  8  C3 FF FF FF FF 00 00 FF 
   434)      4804.4  Rx     1DEFFF04  8  C4 FF FF 7F FF FF FF 7F 
   435)      4805.1  Rx     1DEFFF04  8  C5 FF FF FF 7F 00 00 FF 
   436)      4805.7  Rx     1DEFFF04  8  C6 7F FF FF FF FF FF FF 
   437)      4806.4  Rx     0DF90304  8  FF FF FF FF FF 7F FF FF 
   438)      4807.0  Rx     1DEFFF04  8  E0 1D E5 98 12 07 02 02 
   439)      4807.6  Rx     1DEFFF04  8  E1 FF FF FF FF FF FF FF 
   440)      4808.3  Rx     1DEFFF04  8  E2 FF FF FF FF FF FF FF 
   441)      4808.9  Rx     1DEFFF04  8  E3 FF FF FF FF 7F FF FF 
   442)      4809.6  Rx     1DEFFF04  8  E4 FF 7F FF FF FF FF FF 
   443)      4862.2  Rx     09F21406  8  01 75 05 FF 7F FF FF FF 
   444)      4882.4  Rx     09F11201  8  FF 52 7A FF 7F FF 7F FD 
   445)      4883.1  Rx     09F10D01  8  00 F8 FF 7F 5F B8 FF FF 
   446)      4962.2  Rx     09F21406  8  01 75 05 FF 7F FF FF FF 
   447)      4983.1  Rx     09F11201  8  FF 51 7A FF 7F FF 7F FD 
   448)      4983.7  Rx     09F10D01  8  00 F8 FF 7F 5F B8 FF FF 
   449)      5062.2  Rx     09F21406  8  01 75 05 FF 7F FF FF FF 
   450)      5083.8  Rx     09F11201  8  FF 52 7A FF 7F FF 7F FD 
   451)      5084.5  Rx     09F10D01  8  00 F8 FF 7F 5F B8 FF FF 
   452)      5133.3  Rx     1DEFFF04  8  00 26 E5 98 FC 03 08 08 
   453)      5134.0  Rx     1DEFFF04  8  01 01 00 00 00 F0 53 BD 
   454)      5134.6  Rx     1DEFFF04  8  02 1C 00 CD 78 C0 00 00 
   455)      5135.2  Rx     1DEFFF04  8  03 00 00 FF FF FF FF 00 
   456)      5135.8  Rx     1DEFFF04  8  04 00 00 00 FF FF FF FF 
   457)      5136.5  Rx     1DEFFF04  8  05 00 00 02 00 FF FF FF 
   458)      5162.2  Rx     09F21406  8  01 75 05 FF 7F FF FF FF 
   459)      5184.6  Rx     09F11201  8  FF 52 7A FF 7F FF 7F FD 
   460)      5185.2  Rx     09F10D01  8  00 F8 FF 7F 5F B8 FF FF 
   461)      5189.3  Rx     1DEFFF09  8  00 0A E5 98 6C 07 02 02 
   462)      5189.9  Rx     1DEFFF09  8  01 16 00 01 00 FF FF FF 
   463)      5190.5  Rx     19F11A09  6  FF FF DF 40 FF 7F 
   464)      5192.2  Rx     1DEFFF06  8  00 0A E5 98 9B 08 04 04 
   465)      5192.7  Rx     1DEFFF06  8  01 01 00 33 E3 FF FF FF 
   466)      5205.4  Rx     1CEFFF01  7  E5 98 5B 07 04 04 00 
   467)      5262.2  Rx     09F21406  8  01 75 05 FF 7F FF FF FF 
   468)      5280.4  Rx     1DEFFF09  8  20 11 E5 98 E7 08 0A 0A 
   469)      5281.0  Rx     1DEFFF09  8  21 03 01 03 0D DB A6 D2 
   470)      5281.6  Rx     1DEFFF09  8  22 CA 02 11 00 FF FF FF 
   471)      5285.3  Rx     09F11201  8  FF 51 7A FF 7F FF 7F FD 
   472)      5285.9  Rx     09F10D01  8  00 F8 FF 7F 5F B8 FF FF 
   473)      5362.2  Rx     09F21406  8  01 75 05 FF 7F FF FF FF 
   474)      5386.0  Rx     09F11201  8  FF 52 7A FF 7F FF 7F FD 
   475)      5386.6  Rx     09F10D01  8  00 F8 FF 7F 5F B8 FF FF 
   476)      5462.2  Rx     09F21406  8  01 75 05 FF 7F FF FF FF 
   477)      5486.7  Rx     09F11201  8  FF 52 7A FF 7F FF 7F FD 
   478)      5487.4  Rx     09F10D01  8  00 F8 FF 7F 5F B8 FF FF 
   479)      5562.2  Rx     09F21406  8  01 75 05 FF 7F FF FF FF 
   480)      5587.4  Rx     09F11201  8  FF 52 7A FF 7F FF 7F FD 
   481)      5588.0  Rx     09F10D01  8  00 F8 FF 7F 5F B8 FF FF 
   482)      5662.2  Rx     09F21406  8  01 75 05 FF 7F FF FF FF 
   483)      5688.1  Rx     09F11201  8  FF 52 7A FF 7F FF 7F FD 
   484)      5688.7  Rx     09F10D01  8  00 F8 FF 7F 5F B8 FF FF 
   485)      5762.2  Rx     09F21406  8  01 75 05 FF 7F FF FF FF 
   486)      5788.8  Rx     09F11201  8  FF 53 7A FF 7F FF 7F FD 
   487)      5789.5  Rx     09F10D01  8  00 F8 FF 7F 5F B8 FF FF 
   488)      5798.8  Rx     0DF90404  8  40 22 FF FF FF FF FF 0F 
   489)      5799.4  Rx     0DF90404  8  41 FF FF FF FF FF FF FF 
   490)      5800.1  Rx     0DF90404  8  42 FF FF FF FF FF FF FF 
   491)      5800.8  Rx     0DF90404  8  43 FF FF FF FF FF FF FF 
   492)      5801.4  Rx     0DF90404  8  44 7F FF FF FF 7F FF 7F 
   493)      5802.0  Rx     1DEFFF04  8  20 2A E5 98 61 06 02 02 
   494)      5802.7  Rx     1DEFFF04  8  21 FF FF FF FF 03 03 00 
   495)      5803.3  Rx     1DEFFF04  8  22 00 FF FF FF FF FF FF 
   496)      5804.0  Rx     1DEFFF04  8  23 FF FF FF FF 00 00 FF 
   497)      5804.6  Rx     1DEFFF04  8  24 FF FF 7F FF FF FF 7F 
   498)      5805.2  Rx     1DEFFF04  8  25 FF FF FF 7F 00 00 FF 
   499)      5805.9  Rx     1DEFFF04  8  26 7F FF FF FF FF FF FF 
   500)      5806.5  Rx     0DF90304  8  FF FF FF FF FF 7F FF FF 
   501)      5807.2  Rx     1DEFFF04  8  40 1D E5 98 12 07 02 02 
   502)      5807.8  Rx     1DEFFF04  8  41 FF FF FF FF FF FF FF 
   503)      5808.4  Rx     1DEFFF04  8  42 FF FF FF FF FF FF FF 
   504)      5809.1  Rx     1DEFFF04  8  43 FF FF FF FF 7F FF FF 
   505)      5809.8  Rx     1DEFFF04  8  44 FF 7F FF FF FF FF FF 
   506)      5862.2  Rx     09F21406  8  01 75 05 FF 7F FF FF FF 
   507)      5889.4  Rx     1CEFFF09  6  E5 98 17 05 04 04 
   508)      5889.9  Rx     09F11201  8  FF 53 7A FF 7F FF 7F FD 
   509)      5890.5  Rx     09F10D01  8  00 F8 FF 7F 5F B8 FF FF 
   510)      5962.2  Rx     09F21406  8  01 75 05 FF 7F FF FF FF 
   511)      5990.2  Rx     09F11201  8  FF 52 7A FF 7F FF 7F FD 
   512)      5990.9  Rx     09F10D01  8  00 F8 FF 7F 5F B8 FF FF 
   513)      6062.2  Rx     09F21406  8  01 75 05 FF 7F FF FF FF 
   514)      6091.0  Rx     09F11201  8  FF 51 7A FF 7F FF 7F FD 
   515)      6091.6  Rx     09F10D01  8  00 F8 FF 7F 5F B8 FF FF 
   516)      6162.2  Rx     09F21406  8  01 75 05 FF 7F FF FF FF 
   517)      6189.4  Rx     1DEFFF09  8  40 0A E5 98 6C 07 02 02 
   518)      6190.0  Rx     1DEFFF09  8  41 16 00 01 00 FF FF FF 
   519)      6190.5  Rx     19F11A09  6  FF FF DF 40 FF 7F 
   520)      6191.7  Rx     09F11201  8  FF 50 7A FF 7F FF 7F FD 
   521)      6192.2  Rx     1DEFFF06  8  20 0A E5 98 9B 08 04 04 
   522)      6192.8  Rx     09F10D01  8  00 F8 FF 7F 5F B8 FF FF 
   523)      6193.4  Rx     1DEFFF06  8  21 01 00 33 E3 FF FF FF 
   524)      6204.1  Rx     1DEFFF04  8  60 26 E5 98 FC 03 08 08 
   525)      6204.7  Rx     1DEFFF04  8  61 01 00 00 00 F0 53 BD 
   526)      6205.4  Rx     1DEFFF04  8  62 1C 00 CD 78 C0 00 00 
   527)      6206.0  Rx     1DEFFF04  8  63 00 00 FF FF FF FF 00 
   528)      6206.7  Rx     1DEFFF04  8  64 00 00 00 FF FF FF FF 
   529)      6207.4  Rx     1DEFFF04  8  65 00 00 02 00 FF FF FF 
   530)      6256.7  Rx     1CEFFF01  7  E5 98 5B 07 04 04 00 
   531)      6262.2  Rx     09F21406  8  01 75 05 FF 7F FF FF FF 
   532)      6278.7  Rx     1DEFFF01  8  C0 CE E5 98 D8 04 04 04 
   533)      6279.3  Rx     1DEFFF01  8  C1 00 00 7A 44 4E 67 48 
   534)      6279.9  Rx     1DEFFF01  8  C2 40 FB B0 E9 37 00 00 
   535)      6280.5  Rx     1DEFFF01  8  C3 00 00 6F 12 03 3B 3E 
   536)      6281.0  Rx     1DEFFF09  8  60 11 E5 98 E7 08 0A 0A 
   537)      6281.5  Rx     1DEFFF01  8  C4 0A 24 43 C2 B8 32 3E 
   538)      6282.1  Rx     1DEFFF09  8  61 03 01 03 0D DB A6 D2 
   539)      6282.6  Rx     1DEFFF01  8  C5 A6 0A 06 3F 2C 01 70 
   540)      6283.2  Rx     1DEFFF09  8  62 CA 02 11 00 FF FF FF 
   541)      6283.7  Rx     1DEFFF01  8  C6 17 F4 01 70 17 5A 00 
   542)      6284.3  Rx     1DEFFF01  8  C7 0A 2D 06 E4 00 01 01 
   543)      6284.9  Rx     1DEFFF01  8  C8 00 00 01 04 3E 00 49 
   544)      6285.5  Rx     1DEFFF01  8  C9 27 49 27 17 44 42 32 
   545)      6286.1  Rx     1DEFFF01  8  CA 32 01 01 00 01 01 01 
   546)      6286.7  Rx     1DEFFF01  8  CB 01 01 01 00 01 01 00 
   547)      6287.3  Rx     1DEFFF01  8  CC 01 00 00 74 B5 51 40 
   548)      6287.9  Rx     1DEFFF01  8  CD 0A 0B 0C 00 FF 04 01 
   549)      6288.5  Rx     1DEFFF01  8  CE 00 00 03 01 00 02 FF 
   550)      6289.1  Rx     1DEFFF01  8  CF 00 00 00 90 00 0A FF 
   551)      6289.7  Rx     1DEFFF01  8  D0 FF FF 01 00 00 00 00 
   552)      6290.3  Rx     1DEFFF01  8  D1 4A 9F A4 41 F2 8B C5 
   553)      6290.9  Rx     1DEFFF01  8  D2 40 02 00 00 00 0F 00 
   554)      6291.5  Rx     1DEFFF01  8  D3 02 00 98 00 00 00 00 
   555)      6292.1  Rx     1DEFFF01  8  D4 0C 5A 64 E8 03 00 0C 
   556)      6292.7  Rx     1DEFFF01  8  D5 00 00 00 41 00 00 80 
   557)      6293.3  Rx     1DEFFF01  8  D6 3F 00 00 80 3F 00 00 
   558)      6293.8  Rx     1DEFFF01  8  D7 80 3F 34 33 AB 41 CB 
   559)      6294.4  Rx     1DEFFF01  8  D8 A1 45 3E AE 58 B7 40 
   560)      6295.0  Rx     1DEFFF01  8  D9 00 01 01 00 2D 2D 0F 
   561)      6295.6  Rx     1DEFFF01  8  DA 00 00 32 01 00 00 00 
   562)      6296.2  Rx     1DEFFF01  8  DB 00 00 F3 66 DF 3F FF 
   563)      6296.8  Rx     1DEFFF01  8  DC FF 01 00 FF FF 01 00 
   564)      6297.4  Rx     1DEFFF01  8  DD 20 00 04 00 FF FF FF 
   565)      6298.0  Rx     1DEFFF01  8  E0 5E E5 98 14 05 04 04 
   566)      6298.6  Rx     1DEFFF01  8  E1 00 00 00 00 1F 00 00 
   567)      6299.2  Rx     1DEFFF01  8  E2 00 00 00 00 00 AA 44 
   568)      6299.8  Rx     1DEFFF01  8  E3 4A 40 6C 93 48 40 6C 
   569)      6300.4  Rx     1DEFFF01  8  E4 68 48 40 C2 86 62 3D 
   570)      6301.0  Rx     1DEFFF01  8  E5 70 70 76 B9 00 00 80 
   571)      6301.6  Rx     1DEFFF01  8  E6 3F 00 00 E5 FE 05 00 
   572)      6302.2  Rx     1DEFFF01  8  E7 02 10 00 00 00 00 00 
   573)      6302.8  Rx     1DEFFF01  8  E8 00 00 00 1F 00 00 00 
   574)      6303.8  Rx     1DEFFF01  8  E9 00 00 00 00 5C 05 00 
   575)      6304.5  Rx     1DEFFF01  8  EA 00 00 00 00 00 FF FF 
   576)      6305.1  Rx     1DEFFF01  8  EB 00 00 00 00 00 00 00 
   577)      6305.7  Rx     1DEFFF01  8  EC 19 00 00 00 00 00 00 
   578)      6306.3  Rx     1DEFFF01  8  ED 00 00 00 20 FF FF FF 
   579)      6306.9  Rx     09F11201  8  FF 51 7A FF 7F FF 7F FD 
   580)      6307.5  Rx     09F10D01  8  00 F8 FF 7F 5F B8 FF FF 
   581)      6362.2  Rx     09F21406  8  01 75 05 FF 7F FF FF FF 
   582)      6393.1  Rx     09F11201  8  FF 4F 7A FF 7F FF 7F FD 
   583)      6393.7  Rx     09F10D01  8  00 F8 FF 7F 5F B8 FF FF 
   584)      6462.2  Rx     09F21406  8  01 75 05 FF 7F FF FF FF 
   585)      6493.8  Rx     09F11201  8  FF 4E 7A FF 7F FF 7F FD 
   586)      6494.4  Rx     09F10D01  8  00 F8 FF 7F 5F B8 FF FF 
   587)      6562.2  Rx     09F21406  8  01 75 05 FF 7F FF FF FF 
   588)      6592.2  Rx     0DF80503  8  00 2B FF DF 40 A6 E9 BB 
   589)      6592.9  Rx     0DF80503  8  01 22 C0 4B 36 66 C1 8F 
   590)      6593.9  Rx     0DF80503  8  02 BF 06 00 A6 C3 3C A5 
   591)      6594.5  Rx     09F11201  8  FF 4F 7A FF 7F FF 7F FD 
   592)      6595.1  Rx     0DF80503  8  03 F8 4B 01 A0 29 3B 14 
   593)      6595.6  Rx     09F10D01  8  00 F8 FF 7F 5F B8 FF FF 
   594)      6596.2  Rx     0DF80503  8  04 00 00 00 00 10 FC 01 
   595)      6596.8  Rx     0DF80503  8  05 AC 26 AC 26 4A 12 00 
   596)      6597.9  Rx     0DF80503  8  06 00 00 FF FF FF FF FF 
   597)      6598.8  Rx     19F11A03  6  FF F2 DF 40 47 01 
   598)      6599.9  Rx     19FA0403  8  C0 87 FF FF 0B 10 22 24 
   599)      6600.9  Rx     19FA0403  8  C1 93 CE D0 07 FF FF FF 
   600)      6602.0  Rx     19FA0403  8  C2 7F F1 1D 68 12 96 38 
   601)      6602.9  Rx     19FA0403  8  C3 28 0A FF FF FF 7F F2 
   602)      6603.9  Rx     19FA0403  8  C4 15 73 32 B9 3E 6C 07 
   603)      6604.9  Rx     19FA0403  8  C5 FF FF FF 7F F1 14 D1 
   604)      6605.9  Rx     19FA0403  8  C6 15 B9 2F 78 05 FF FF 
   605)      6606.9  Rx     19FA0403  8  C7 FF 7F F1 16 0B 02 A0 
   606)      6607.9  Rx     19FA0403  8  C8 76 DC 05 FF FF FF 7F 
   607)      6608.9  Rx     19FA0403  8  C9 F0 1B B9 11 88 BD 14 
   608)      6609.9  Rx     19FA0403  8  CA 05 FF FF FF 7F F0 05 
   609)      6610.9  Rx     19FA0403  8  CB 74 05 73 14 9C FF FF 
   610)      6611.9  Rx     19FA0403  8  CC FF FF 7F F0 12 5C 10 
   611)      6612.9  Rx     19FA0403  8  CD DB 62 9C FF FF FF FF 
   612)      6613.9  Rx     19FA0403  8  CE 7F F0 19 5D 01 72 5F 
   613)      6614.9  Rx     19FA0403  8  CF 9C FF FF FF FF 7F F0 
   614)      6615.9  Rx     19FA0403  8  D0 1A D0 33 5A A6 9C FF 
   615)      6616.9  Rx     19FA0403  8  D1 FF FF FF 7F F0 1F 97 
   616)      6617.9  Rx     19FA0403  8  D2 0B DA 8F 9C FF FF FF 
   617)      6618.9  Rx     19FA0403  8  D3 FF 7F F0 FF FF FF FF 
   618)      6619.9  Rx     19FA0303  8  FF DA AC 26 AC 26 00 00 
   619)      6620.9  Rx     1DEFFF03  8  80 3E E5 98 17 00 04 04 
   620)      6621.8  Rx     1DEFFF03  8  81 DE D8 D8 42 B2 FE E9 
   621)      6622.9  Rx     1DEFFF03  8  82 42 12 83 1F 43 00 00 
   622)      6623.9  Rx     1DEFFF03  8  83 00 00 00 00 00 00 00 
   623)      6624.9  Rx     1DEFFF03  8  84 00 00 00 00 00 00 00 
   624)      6625.9  Rx     1DEFFF03  8  85 00 00 00 00 00 00 00 
   625)      6626.9  Rx     1DEFFF03  8  86 00 00 00 C6 42 00 00 
   626)      6627.9  Rx     1DEFFF03  8  87 C6 42 00 00 C6 42 00 
   627)      6628.9  Rx     1DEFFF03  8  88 00 00 00 00 00 00 00 
   628)      6629.9  Rx     09F80203  8  FF FC 9C D4 90 00 FF FF 
   629)      6630.8  Rx     09F80103  8  04 D2 FB 1C 46 CE 91 05 
   630)      6662.2  Rx     09F21406  8  01 75 05 FF 7F FF FF FF 
   631)      6684.0  Rx     1DEFFF03  8  A0 0E E5 98 E0 08 02 02 
   632)      6684.9  Rx     1DEFFF03  8  A1 03 09 00 12 E8 07 19 
   633)      6685.9  Rx     1DEFFF03  8  A2 00 FF FF FF FF FF FF 
   634)      6686.9  Rx     1DEFFF03  8  C0 0E E5 98 E0 08 02 02 
   635)      6687.9  Rx     1DEFFF03  8  C1 03 09 01 12 E8 07 19 
   636)      6688.9  Rx     1DEFFF03  8  C2 00 FF FF FF FF FF FF 
   637)      6692.1  Rx     09F80103  8  0E D2 FB 1C 37 CE 91 05 
   638)      6695.2  Rx     09F11201  8  FF 51 7A FF 7F FF 7F FD 
   639)      6695.8  Rx     09F10D01  8  00 F8 FF 7F 5F B8 FF FF 
   640)      6762.2  Rx     09F21406  8  01 75 05 FF 7F FF FF FF 
   641)      6792.2  Rx     09F80103  8  18 D2 FB 1C 29 CE 91 05 
   642)      6796.0  Rx     09F11201  8  FF 50 7A FF 7F FF 7F FD 
   643)      6796.7  Rx     09F10D01  8  00 F8 FF 7F 5F B8 FF FF 
   644)      6842.1  Rx     09F80203  8  FF FC 9C D4 90 00 FF FF 
   645)      6862.2  Rx     09F21406  8  01 75 05 FF 7F FF FF FF 
   646)      6892.1  Rx     09F80103  8  22 D2 FB 1C 1A CE 91 05 
   647)      6896.7  Rx     09F11201  8  FF 4F 7A FF 7F FF 7F FD 
   648)      6897.3  Rx     09F10D01  8  00 F8 FF 7F 5F B8 FF FF 
   649)      6962.2  Rx     09F21406  8  01 75 05 FF 7F FF FF FF 
   650)      6981.1  Rx     1DEFFF03  8  E0 2A E5 98 61 06 02 02 
   651)      6981.9  Rx     1DEFFF03  8  E1 FF FF FF FF 03 03 00 
   652)      6982.9  Rx     1DEFFF03  8  E2 00 FF FF FF FF FF FF 
   653)      6983.9  Rx     1DEFFF03  8  E3 FF FF FF FF 00 00 FF 
   654)      6984.9  Rx     1DEFFF03  8  E4 FF FF 7F FF FF FF 7F 
   655)      6985.9  Rx     1DEFFF03  8  E5 FF FF FF 7F 00 00 FF 
   656)      6986.9  Rx     1DEFFF03  8  E6 7F FF FF FF FF FF FF 
   657)      6987.9  Rx     1DEFFF03  8  00 1D E5 98 12 07 02 02 
   658)      6988.9  Rx     1DEFFF03  8  01 FF FF FF FF FF FF FF 
   659)      6989.9  Rx     1DEFFF03  8  02 FF FF FF FF FF FF FF 
   660)      6990.9  Rx     1DEFFF03  8  03 FF FF FF FF 7F FF FF 
   661)      6991.9  Rx     1DEFFF03  8  04 FF 7F FF FF FF FF FF 
   662)      6992.9  Rx     0DF90403  8  00 22 FF FF FF FF FF 0F 
   663)      6993.9  Rx     0DF90403  8  01 FF FF FF FF FF FF FF 
   664)      6994.9  Rx     0DF90403  8  02 FF FF FF FF FF FF FF 
   665)      6995.9  Rx     0DF90403  8  03 FF FF FF FF FF FF FF 
   666)      6996.9  Rx     0DF90403  8  04 7F FF FF FF 7F FF 7F 
   667)      6997.5  Rx     09F11201  8  FF 4C 7A FF 7F FF 7F FD 
   668)      6998.0  Rx     0DF90303  8  FF F0 FF FF FF 7F FF FF 
   669)      6998.6  Rx     09F10D01  8  00 F8 FF 7F 5F B8 FF FF 
   670)      6999.2  Rx     09F80103  8  2C D2 FB 1C 0C CE 91 05 
   671)      7062.2  Rx     09F21406  8  01 75 05 FF 7F FF FF FF 
   672)      7092.1  Rx     09F80203  8  FF FC 9C D4 90 00 FF FF 
   673)      7092.9  Rx     09F80103  8  36 D2 FB 1C FD CD 91 05 
   674)      7098.0  Rx     09F11201  8  FF 4A 7A FF 7F FF 7F FD 
   675)      7098.7  Rx     09F10D01  8  00 F8 FF 7F 5F B8 FF FF 
   676)      7121.2  Rx     0DF90404  8  60 22 FF FF FF FF FF 0F 
   677)      7121.9  Rx     0DF90404  8  61 FF FF FF FF FF FF FF 
   678)      7122.6  Rx     0DF90404  8  62 FF FF FF FF FF FF FF 
   679)      7123.2  Rx     0DF90404  8  63 FF FF FF FF FF FF FF 
   680)      7123.9  Rx     0DF90404  8  64 7F FF FF FF 7F FF 7F 
   681)      7124.5  Rx     1DEFFF04  8  80 2A E5 98 61 06 02 02 
   682)      7125.1  Rx     1DEFFF04  8  81 FF FF FF FF 03 03 00 
   683)      7125.8  Rx     1DEFFF04  8  82 00 FF FF FF FF FF FF 
   684)      7126.4  Rx     1DEFFF04  8  83 FF FF FF FF 00 00 FF 
   685)      7127.0  Rx     1DEFFF04  8  84 FF FF 7F FF FF FF 7F 
   686)      7127.7  Rx     1DEFFF04  8  85 FF FF FF 7F 00 00 FF 
   687)      7128.3  Rx     1DEFFF04  8  86 7F FF FF FF FF FF FF 
   688)      7129.0  Rx     0DF90304  8  FF FF FF FF FF 7F FF FF 
   689)      7129.6  Rx     1DEFFF04  8  A0 1D E5 98 12 07 02 02 
   690)      7130.2  Rx     1DEFFF04  8  A1 FF FF FF FF FF FF FF 
   691)      7130.9  Rx     1DEFFF04  8  A2 FF FF FF FF FF FF FF 
   692)      7131.5  Rx     1DEFFF04  8  A3 FF FF FF FF 7F FF FF 
   693)      7132.1  Rx     1DEFFF04  8  A4 FF 7F FF FF FF FF FF 
   694)      7133.4  Rx     1DEFFF04  8  C0 26 E5 98 FC 03 08 08 
   695)      7134.0  Rx     1DEFFF04  8  C1 01 00 00 00 F0 53 BD 
   696)      7134.7  Rx     1DEFFF04  8  C2 1C 00 CD 78 C0 00 00 
   697)      7135.3  Rx     1DEFFF04  8  C3 00 00 FF FF FF FF 00 
   698)      7136.0  Rx     1DEFFF04  8  C4 00 00 00 FF FF FF FF 
   699)      7136.6  Rx     1DEFFF04  8  C5 00 00 02 00 FF FF FF 
   700)      7162.2  Rx     09F21406  8  01 75 05 FF 7F FF FF FF 
   701)      7189.5  Rx     1DEFFF09  8  80 0A E5 98 6C 07 02 02 
   702)      7190.1  Rx     1DEFFF09  8  81 16 00 01 00 FF FF FF 
   703)      7190.6  Rx     19F11A09  6  FF FF DF 40 FF 7F 
   704)      7192.1  Rx     09F80103  8  41 D2 FB 1C EF CD 91 05 
   705)      7192.6  Rx     1DEFFF06  8  40 0A E5 98 9B 08 04 04 
   706)      7193.2  Rx     1DEFFF06  8  41 01 00 33 E3 FF FF FF 
   707)      7198.8  Rx     09F11201  8  FF 49 7A FF 7F FF 7F FD 
   708)      7199.4  Rx     09F10D01  8  00 F8 FF 7F 5F B8 FF FF 
   709)      7262.2  Rx     09F21406  8  01 75 05 FF 7F FF FF FF 
   710)      7280.5  Rx     1DEFFF09  8  A0 11 E5 98 E7 08 0A 0A 
   711)      7281.1  Rx     1DEFFF09  8  A1 03 01 03 0D DB A6 D2 
   712)      7281.7  Rx     1DEFFF09  8  A2 CA 02 11 00 FF FF FF 
   713)      7292.1  Rx     09F80103  8  4B D2 FB 1C E0 CD 91 05 
   714)      7299.5  Rx     09F11201  8  FF 4B 7A FF 7F FF 7F FD 
   715)      7300.1  Rx     09F10D01  8  00 F8 FF 7F 5F B8 FF FF 
   716)      7306.6  Rx     1CEFFF01  7  E5 98 5B 07 04 04 00 
   717)      7342.1  Rx     09F80203  8  FF FC 9C D4 90 00 FF FF 
   718)      7362.2  Rx     09F21406  8  01 75 05 FF 7F FF FF FF 
   719)      7392.1  Rx     09F80103  8  55 D2 FB 1C D2 CD 91 05 
   720)      7400.2  Rx     09F11201  8  FF 4E 7A FF 7F FF 7F FD 
   721)      7400.8  Rx     09F10D01  8  00 F8 FF 7F 5F B8 FF FF 
   722)      7415.3  Rx     1DEFFF03  8  20 11 E5 98 E7 08 0A 0A 
   723)      7416.9  Rx     1DEFFF03  8  21 03 01 03 0D DB A6 D2 
   724)      7417.9  Rx     1DEFFF03  8  22 CA 02 11 00 FF FF FF 
   725)      7462.2  Rx     09F21406  8  01 75 05 FF 7F FF FF FF 
   726)      7492.1  Rx     09F80103  8  5F D2 FB 1C C3 CD 91 05 
   727)      7500.9  Rx     09F11201  8  FF 50 7A FF 7F FF 7F FD 
   728)      7501.5  Rx     09F10D01  8  00 F8 FF 7F 5F B8 FF FF 
   729)      7562.3  Rx     09F21406  8  01 75 05 FF 7F FF FF FF 
   730)      7592.2  Rx     0DF80503  8  20 2B FF DF 40 B6 10 BC 
   731)      7592.9  Rx     0DF80503  8  21 22 00 06 12 12 D9 8F 
   732)      7593.9  Rx     0DF80503  8  22 BF 06 10 AB F0 63 83 
   733)      7594.9  Rx     0DF80503  8  23 F8 4B 01 C0 48 3B 14 
   734)      7595.9  Rx     0DF80503  8  24 00 00 00 00 10 FC 01 
   735)      7596.9  Rx     0DF80503  8  25 AC 26 AC 26 4A 12 00 
   736)      7597.9  Rx     0DF80503  8  26 00 00 FF FF FF FF FF 
   737)      7598.8  Rx     19F11A03  6  FF F2 DF 40 47 01 
   738)      7599.9  Rx     19FA0403  8  E0 87 FF FF 0B 10 22 24 
   739)      7600.9  Rx     19FA0403  8  E1 93 CE 34 08 FF FF FF 
   740)      7601.6  Rx     09F11201  8  FF 51 7A FF 7F FF 7F FD 
   741)      7602.2  Rx     19FA0403  8  E2 7F F1 1D 68 12 96 38 
   742)      7602.8  Rx     09F10D01  8  00 F8 FF 7F 5F B8 FF FF 
   743)      7603.3  Rx     19FA0403  8  E3 C4 09 FF FF FF 7F F2 
   744)      7604.9  Rx     19FA0403  8  E4 15 73 32 B9 3E 6C 07 
   745)      7606.0  Rx     19FA0403  8  E5 FF FF FF 7F F1 14 D1 
   746)      7606.9  Rx     19FA0403  8  E6 15 B9 2F 14 05 FF FF 
   747)      7607.9  Rx     19FA0403  8  E7 FF 7F F1 16 0B 02 A0 
   748)      7608.9  Rx     19FA0403  8  E8 76 DC 05 FF FF FF 7F 
   749)      7609.9  Rx     19FA0403  8  E9 F0 1B B9 11 88 BD 78 
   750)      7611.0  Rx     19FA0403  8  EA 05 FF FF FF 7F F0 05 
   751)      7611.9  Rx     19FA0403  8  EB 74 05 73 14 9C FF FF 
   752)      7612.9  Rx     19FA0403  8  EC FF FF 7F F0 12 5C 10 
   753)      7613.9  Rx     19FA0403  8  ED DB 62 9C FF FF FF FF 
   754)      7614.9  Rx     19FA0403  8  EE 7F F0 19 5D 01 72 5F 
   755)      7615.9  Rx     19FA0403  8  EF 9C FF FF FF FF 7F F0 
   756)      7616.9  Rx     19FA0403  8  F0 1A D0 33 5A A6 9C FF 
   757)      7617.9  Rx     19FA0403  8  F1 FF FF FF 7F F0 1F 97 
   758)      7619.0  Rx     19FA0403  8  F2 0B DA 8F 9C FF FF FF 
   759)      7619.9  Rx     19FA0403  8  F3 FF 7F F0 FF FF FF FF 
   760)      7620.9  Rx     19FA0303  8  FF DA AC 26 AC 26 00 00 
   761)      7621.9  Rx     1DEFFF03  8  40 3E E5 98 17 00 04 04 
   762)      7622.9  Rx     1DEFFF03  8  41 DE D8 D8 42 B2 FE E9 
   763)      7623.9  Rx     1DEFFF03  8  42 42 12 83 1F 43 00 00 
   764)      7624.9  Rx     1DEFFF03  8  43 00 00 00 00 00 00 00 
   765)      7625.9  Rx     1DEFFF03  8  44 00 00 00 00 00 00 00 
   766)      7626.9  Rx     1DEFFF03  8  45 00 00 00 00 00 00 00 
   767)      7627.9  Rx     1DEFFF03  8  46 00 00 00 C6 42 00 00 
   768)      7628.9  Rx     1DEFFF03  8  47 C6 42 00 00 C6 42 00 
   769)      7629.9  Rx     1DEFFF03  8  48 00 00 00 00 00 00 00 
   770)      7630.9  Rx     09F80203  8  FF FC 9C D4 90 00 FF FF 
   771)      7631.9  Rx     09F80103  8  69 D2 FB 1C B4 CD 91 05 
   772)      7662.2  Rx     09F21406  8  01 75 05 FF 7F FF FF FF 
   773)      7692.1  Rx     09F80103  8  73 D2 FB 1C A6 CD 91 05 
   774)      7702.3  Rx     09F11201  8  FF 51 7A FF 7F FF 7F FD 
   775)      7703.0  Rx     09F10D01  8  00 F8 FF 7F 5F B8 FF FF 
   776)      7762.2  Rx     09F21406  8  01 75 05 FF 7F FF FF FF 
   777)      7792.1  Rx     09F80103  8  7E D2 FB 1C 97 CD 91 05 
   778)      7803.0  Rx     09F11201  8  FF 50 7A FF 7F FF 7F FD 
   779)      7804.0  Rx     09F10D01  8  00 F8 FF 7F 5F B8 FF FF 
   780)      7842.1  Rx     09F80203  8  FF FC 9C D4 90 00 FF FF 
   781)      7862.2  Rx     09F21406  8  01 75 05 FF 7F FF FF FF 
   782)      7892.1  Rx     09F80103  8  88 D2 FB 1C 89 CD 91 05 
   783)      7904.3  Rx     09F11201  8  FF 50 7A FF 7F FF 7F FD 
   784)      7904.9  Rx     09F10D01  8  00 F8 FF 7F 5F B8 FF FF 
   785)      7962.2  Rx     09F21406  8  01 75 05 FF 7F FF FF FF 
   786)      7981.3  Rx     1DEFFF03  8  60 2A E5 98 61 06 02 02 
   787)      7982.9  Rx     1DEFFF03  8  61 FF FF FF FF 03 03 00 
   788)      7983.9  Rx     1DEFFF03  8  62 00 FF FF FF FF FF FF 
   789)      7984.9  Rx     1DEFFF03  8  63 FF FF FF FF 00 00 FF 
   790)      7985.9  Rx     1DEFFF03  8  64 FF FF 7F FF FF FF 7F 
   791)      7986.9  Rx     1DEFFF03  8  65 FF FF FF 7F 00 00 FF 
   792)      7987.9  Rx     1DEFFF03  8  66 7F FF FF FF FF FF FF 
   793)      7988.9  Rx     1DEFFF03  8  80 1D E5 98 12 07 02 02 
   794)      7989.5  Rx     1CEFFF09  6  E5 98 17 05 04 04 
   795)      7990.1  Rx     1DEFFF03  8  81 FF FF FF FF FF FF FF 
   796)      7991.0  Rx     1DEFFF03  8  82 FF FF FF FF FF FF FF 
   797)      7991.9  Rx     1DEFFF03  8  83 FF FF FF FF 7F FF FF 
   798)      7992.9  Rx     1DEFFF03  8  84 FF 7F FF FF FF FF FF 
   799)      7993.9  Rx     0DF90403  8  20 22 FF FF FF FF FF 0F 
   800)      7994.9  Rx     0DF90403  8  21 FF FF FF FF FF FF FF 
   801)      7995.9  Rx     0DF90403  8  22 FF FF FF FF FF FF FF 
   802)      7996.9  Rx     0DF90403  8  23 FF FF FF FF FF FF FF 
   803)      7997.9  Rx     0DF90403  8  24 7F FF FF FF 7F FF 7F 
   804)      7998.9  Rx     0DF90303  8  FF F0 FF FF FF 7F FF FF 
   805)      7999.9  Rx     09F80103  8  92 D2 FB 1C 7A CD 91 05 
   806)      8004.4  Rx     09F11201  8  FF 50 7A FF 7F FF 7F FD 
   807)      8005.1  Rx     09F10D01  8  00 F8 FF 7F 5F B8 FF FF 
   808)      8026.4  Rx     18EA0304  3  00 EE 00 
   809)      8027.1  Rx     18EEFF03  8  A4 11 AD 1C 00 BE 78 C0 
   810)      8062.2  Rx     09F21406  8  01 75 05 FF 7F FF FF FF 
   811)      8092.1  Rx     09F80203  8  FF FC 9C D4 90 00 FF FF 
   812)      8092.9  Rx     09F80103  8  9C D2 FB 1C 6C CD 91 05 
   813)      8105.2  Rx     09F11201  8  FF 50 7A FF 7F FF 7F FD 
   814)      8105.8  Rx     09F10D01  8  00 F8 FF 7F 5F B8 FF FF 
   815)      8133.5  Rx     1DEFFF04  8  E0 26 E5 98 FC 03 08 08 
   816)      8134.1  Rx     1DEFFF04  8  E1 01 00 00 00 F0 53 BD 
   817)      8134.8  Rx     1DEFFF04  8  E2 1C 00 CD 78 C0 00 00 
   818)      8135.4  Rx     1DEFFF04  8  E3 00 00 FF FF FF FF 00 
   819)      8136.0  Rx     1DEFFF04  8  E4 00 00 00 FF FF FF FF 
   820)      8136.7  Rx     1DEFFF04  8  E5 00 00 02 00 FF FF FF 
   821)      8162.3  Rx     09F21406  8  01 75 05 FF 7F FF FF FF 
   822)      8189.5  Rx     1DEFFF09  8  C0 0A E5 98 6C 07 02 02 
   823)      8190.1  Rx     1DEFFF09  8  C1 16 00 01 00 FF FF FF 
   824)      8190.6  Rx     19F11A09  6  FF FF DF 40 FF 7F 
   825)      8192.1  Rx     09F80103  8  A6 D2 FB 1C 5D CD 91 05 
   826)      8192.6  Rx     1DEFFF06  8  60 0A E5 98 9B 08 04 04 
   827)      8193.2  Rx     1DEFFF06  8  61 01 00 33 E3 FF FF FF 
   828)      8205.9  Rx     09F11201  8  FF 50 7A FF 7F FF 7F FD 
   829)      8206.5  Rx     09F10D01  8  00 F8 FF 7F 5F B8 FF FF 
   830)      8262.2  Rx     09F21406  8  01 75 05 FF 7F FF FF FF 
   831)      8278.8  Rx     1DEFFF01  8  00 CE E5 98 D8 04 04 04 
   832)      8279.4  Rx     1DEFFF01  8  01 00 00 7A 44 F1 66 48 
   833)      8280.0  Rx     1DEFFF01  8  02 40 FB B0 E9 37 00 00 
   834)      8280.6  Rx     1DEFFF01  8  03 00 00 6F 12 03 3B 3E 
   835)      8281.1  Rx     1DEFFF09  8  E0 11 E5 98 E7 08 0A 0A 
   836)      8281.7  Rx     1DEFFF01  8  04 0A 24 43 C2 B8 32 3E 
   837)      8282.2  Rx     1DEFFF09  8  E1 03 01 03 0D DB A6 D2 
   838)      8282.8  Rx     1DEFFF01  8  05 A6 0A 06 3F 2C 01 70 
   839)      8283.3  Rx     1DEFFF09  8  E2 CA 02 11 00 FF FF FF 
   840)      8283.9  Rx     1DEFFF01  8  06 17 F4 01 70 17 5A 00 
   841)      8284.5  Rx     1DEFFF01  8  07 0A 2D 06 E4 00 01 01 
   842)      8285.1  Rx     1DEFFF01  8  08 00 00 01 04 3E 00 49 
   843)      8285.6  Rx     1DEFFF01  8  09 27 49 27 17 44 42 32 
   844)      8286.3  Rx     1DEFFF01  8  0A 32 01 01 00 01 01 01 
   845)      8286.9  Rx     1DEFFF01  8  0B 01 01 01 00 01 01 00 
   846)      8287.4  Rx     1DEFFF01  8  0C 01 00 00 F9 12 06 3D 
   847)      8288.0  Rx     1DEFFF01  8  0D 0A 0B 0C 00 FF 04 01 
   848)      8288.6  Rx     1DEFFF01  8  0E 00 00 03 01 00 02 FF 
   849)      8289.3  Rx     1DEFFF01  8  0F 00 00 00 90 00 0A FF 
   850)      8289.9  Rx     1DEFFF01  8  10 FF FF 01 00 00 00 00 
   851)      8290.5  Rx     1DEFFF01  8  11 4A 9F A4 41 F2 8B C5 
   852)      8291.1  Rx     1DEFFF01  8  12 40 02 00 00 00 0F 00 
   853)      8291.7  Rx     1DEFFF01  8  13 02 00 98 00 00 00 00 
   854)      8292.2  Rx     09F80103  8  B0 D2 FB 1C 4F CD 91 05 
   855)      8292.8  Rx     1DEFFF01  8  14 0C 5A 64 E8 03 00 0C 
   856)      8293.4  Rx     1DEFFF01  8  15 00 00 00 41 00 00 80 
   857)      8294.0  Rx     1DEFFF01  8  16 3F 00 00 80 3F 00 00 
   858)      8294.6  Rx     1DEFFF01  8  17 80 3F 34 33 AB 41 CB 
   859)      8295.2  Rx     1DEFFF01  8  18 A1 45 3E AE 58 B7 40 
   860)      8295.8  Rx     1DEFFF01  8  19 00 01 01 00 2D 2D 0F 
   861)      8296.3  Rx     1DEFFF01  8  1A 00 00 32 01 00 00 00 
   862)      8296.9  Rx     1DEFFF01  8  1B 00 00 F3 66 DF 3F FF 
   863)      8297.5  Rx     1DEFFF01  8  1C FF 01 00 FF FF 01 00 
   864)      8298.1  Rx     1DEFFF01  8  1D 20 00 04 00 FF FF FF 
   865)      8298.7  Rx     1DEFFF01  8  20 5E E5 98 14 05 04 04 
   866)      8299.4  Rx     1DEFFF01  8  21 00 00 00 00 3F 00 00 
   867)      8300.0  Rx     1DEFFF01  8  22 00 00 00 00 00 63 8D 
   868)      8300.5  Rx     1DEFFF01  8  23 4A 40 E5 DB 48 40 86 
   869)      8301.1  Rx     1DEFFF01  8  24 66 48 40 36 4C 64 3D 
   870)      8301.7  Rx     1DEFFF01  8  25 CD 82 1D B8 00 00 80 
   871)      8302.3  Rx     1DEFFF01  8  26 3F FF FF E3 FE 05 00 
   872)      8302.9  Rx     1DEFFF01  8  27 02 10 00 00 00 00 00 
   873)      8304.0  Rx     1DEFFF01  8  28 00 00 00 1F 00 00 00 
   874)      8304.6  Rx     1DEFFF01  8  29 00 00 00 00 5C 05 00 
   875)      8305.2  Rx     1DEFFF01  8  2A 00 00 00 27 BE FF FF 
   876)      8305.8  Rx     1DEFFF01  8  2B 00 00 00 00 00 00 00 
   877)      8306.4  Rx     1DEFFF01  8  2C 19 00 00 00 00 00 00 
   878)      8307.1  Rx     1DEFFF01  8  2D 01 00 00 20 FF FF FF 
   879)      8307.7  Rx     09F11201  8  FF 51 7A FF 7F FF 7F FD 
   880)      8308.3  Rx     09F10D01  8  00 F8 FF 7F 5F B8 FF FF 
   881)      8342.1  Rx     09F80203  8  FF FC 9C D4 90 00 FF FF 
   882)      8343.0  Rx     1CEF0309  8  E5 98 0A 00 04 04 7A 00 
   883)      8343.6  Rx     1CEF0309  8  E5 98 1C 00 04 04 10 00 
   884)      8344.0  Rx     1CEF0309  6  E5 98 ED 04 04 04 
   885)      8344.6  Rx     1CEF0903  8  E5 98 06 00 04 04 1C 00 
   886)      8345.2  Rx     1CEF0309  8  E5 98 0A 00 04 04 6D 00 
   887)      8345.8  Rx     1CEF0309  8  E5 98 0A 00 04 04 A4 02 
   888)      8348.6  Rx     1DF11A04  6  FF F2 DF 40 47 01 
   889)      8349.3  Rx     0DF90404  8  80 22 FF FF FF FF FF 0F 
   890)      8349.9  Rx     0DF90404  8  81 FF FF FF FF FF FF FF 
   891)      8350.6  Rx     0DF90404  8  82 FF FF FF FF FF FF FF 
   892)      8351.2  Rx     0DF90404  8  83 FF FF FF FF FF FF FF 
   893)      8351.9  Rx     0DF90404  8  84 7F FF FF FF 7F FF 7F 
   894)      8352.5  Rx     1DEFFF04  8  00 2A E5 98 61 06 02 02 
   895)      8353.1  Rx     1DEFFF04  8  01 FF FF FF FF 03 03 00 
   896)      8353.8  Rx     1DEFFF04  8  02 00 FF FF FF FF FF FF 
   897)      8354.4  Rx     1DEFFF04  8  03 FF FF FF FF 00 00 FF 
   898)      8354.9  Rx     1CEFFF01  7  E5 98 5B 07 04 04 00 
   899)      8355.5  Rx     1DEFFF04  8  04 FF FF 7F FF FF FF 7F 
   900)      8356.2  Rx     1DEFFF04  8  05 FF FF FF 7F 00 00 FF 
   901)      8356.9  Rx     1DEFFF04  8  06 7F FF FF FF FF FF FF 
   902)      8357.5  Rx     0DF90304  8  FF F0 FF FF FF 7F FF FF 
   903)      8358.2  Rx     1DEFFF04  8  20 1D E5 98 12 07 02 02 
   904)      8358.9  Rx     1DEFFF04  8  21 FF FF FF FF FF FF FF 
   905)      8359.5  Rx     1DEFFF04  8  22 FF FF FF FF FF FF FF 
   906)      8360.2  Rx     1DEFFF04  8  23 FF FF FF FF 7F FF FF 
   907)      8360.8  Rx     1DEFFF04  8  24 FF 7F FF FF FF FF FF 
   908)      8362.3  Rx     09F21406  8  01 75 05 FF 7F FF FF FF 
   909)      8392.1  Rx     09F80103  8  BB D2 FB 1C 40 CD 91 05 
   910)      8407.3  Rx     09F11201  8  FF 52 7A FF 7F FF 7F FD 
   911)      8407.9  Rx     09F10D01  8  00 F8 FF 7F 5F B8 FF FF 
   912)      8421.0  Rx     1DEFFF03  8  A0 11 E5 98 E7 08 0A 0A 
   913)      8421.8  Rx     1DEFFF03  8  A1 03 01 03 0D DB A6 D2 
   914)      8422.8  Rx     1DEFFF03  8  A2 CA 02 11 00 FF FF FF 
   915)      8462.2  Rx     09F21406  8  01 75 05 FF 7F FF FF FF 
   916)      8492.0  Rx     09F80103  8  C5 D2 FB 1C 32 CD 91 05 
   917)      8507.9  Rx     09F11201  8  FF 52 7A FF 7F FF 7F FD 
   918)      8508.5  Rx     09F10D01  8  00 F8 FF 7F 5F B8 FF FF 
   919)      8562.2  Rx     09F21406  8  01 75 05 FF 7F FF FF FF 
   920)      8592.2  Rx     0DF80503  8  40 2B FF DF 40 C6 37 BC 
   921)      8593.8  Rx     0DF80503  8  41 22 80 C8 ED BD F0 8F 
   922)      8594.8  Rx     0DF80503  8  42 BF 06 20 B0 1D 8B 61 
   923)      8595.8  Rx     0DF80503  8  43 F8 4B 01 C0 67 3B 14 
   924)      8596.8  Rx     0DF80503  8  44 00 00 00 00 10 FC 01 
   925)      8597.8  Rx     0DF80503  8  45 AC 26 AC 26 4A 12 00 
   926)      8598.9  Rx     0DF80503  8  46 00 00 FF FF FF FF FF 
   927)      8599.8  Rx     19F11A03  6  FF F2 DF 40 47 01 
   928)      8600.8  Rx     19FA0403  8  00 87 FF FF 0B 10 22 24 
   929)      8601.8  Rx     19FA0403  8  01 93 CE 34 08 FF FF FF 
   930)      8602.8  Rx     19FA0403  8  02 7F F1 1D 68 12 96 38 
   931)      8603.8  Rx     19FA0403  8  03 C4 09 FF FF FF 7F F2 
   932)      8604.9  Rx     19FA0403  8  04 15 73 32 B9 3E 08 07 
   933)      8605.9  Rx     19FA0403  8  05 FF FF FF 7F F1 14 D1 
   934)      8606.8  Rx     19FA0403  8  06 15 B9 2F 14 05 FF FF 
   935)      8607.9  Rx     19FA0403  8  07 FF 7F F1 16 0B 02 A0 
   936)      8608.7  Rx     09F11201  8  FF 52 7A FF 7F FF 7F FD 
   937)      8609.3  Rx     19FA0403  8  08 76 DC 05 FF FF FF 7F 
   938)      8609.9  Rx     09F10D01  8  00 F8 FF 7F 5F B8 FF FF 
   939)      8610.8  Rx     19FA0403  8  09 F0 1B B9 11 88 BD 78 
   940)      8611.9  Rx     19FA0403  8  0A 05 FF FF FF 7F F0 05 
   941)      8612.8  Rx     19FA0403  8  0B 74 05 73 14 9C FF FF 
   942)      8613.8  Rx     19FA0403  8  0C FF FF 7F F0 12 5C 10 
   943)      8614.8  Rx     19FA0403  8  0D DB 62 9C FF FF FF FF 
   944)      8615.8  Rx     19FA0403  8  0E 7F F0 19 5D 01 72 5F 
   945)      8616.9  Rx     19FA0403  8  0F 9C FF FF FF FF 7F F0 
   946)      8617.8  Rx     19FA0403  8  10 1A D0 33 5A A6 9C FF 
   947)      8618.9  Rx     19FA0403  8  11 FF FF FF 7F F0 1F 97 
   948)      8619.8  Rx     19FA0403  8  12 0B DA 8F 9C FF FF FF 
   949)      8620.9  Rx     19FA0403  8  13 FF 7F F0 FF FF FF FF 
   950)      8621.8  Rx     19FA0303  8  FF DA AC 26 AC 26 00 00 
   951)      8622.8  Rx     1DEFFF03  8  C0 3E E5 98 17 00 04 04 
   952)      8623.8  Rx     1DEFFF03  8  C1 DE D8 D8 42 B2 FE E9 
   953)      8624.8  Rx     1DEFFF03  8  C2 42 12 83 1F 43 00 00 
   954)      8625.9  Rx     1DEFFF03  8  C3 00 00 00 00 00 00 00 
   955)      8626.8  Rx     1DEFFF03  8  C4 00 00 00 00 00 00 00 
   956)      8627.9  Rx     1DEFFF03  8  C5 00 00 00 00 00 00 00 
   957)      8628.8  Rx     1DEFFF03  8  C6 00 00 00 C6 42 00 00 
   958)      8629.8  Rx     1DEFFF03  8  C7 C6 42 00 00 C6 42 00 
   959)      8630.9  Rx     1DEFFF03  8  C8 00 00 00 00 00 00 00 
   960)      8631.8  Rx     09F80203  8  FF FC 9C D4 90 00 FF FF 
   961)      8632.8  Rx     09F80103  8  CF D2 FB 1C 23 CD 91 05 
   962)      8637.4  Rx     1CEF0304  8  E5 98 0A 00 04 04 7A 00 
   963)      8638.1  Rx     1CEF0304  8  E5 98 1C 00 04 04 10 00 
   964)      8639.0  Rx     1CEF0403  8  E5 98 06 00 04 04 1C 00 
   965)      8662.2  Rx     09F21406  8  01 75 05 FF 7F FF FF FF 
   966)      8684.0  Rx     1DEFFF03  8  E0 0E E5 98 E0 08 02 02 
   967)      8684.8  Rx     1DEFFF03  8  E1 03 09 00 12 E8 07 19 
   968)      8685.8  Rx     1DEFFF03  8  E2 00 FF FF FF FF FF FF 
   969)      8687.0  Rx     1DEFFF03  8  00 0E E5 98 E0 08 02 02 
   970)      8687.9  Rx     1DEFFF03  8  01 03 09 01 12 E8 07 19 
   971)      8688.9  Rx     1DEFFF03  8  02 00 FF FF FF FF FF FF 
   972)      8692.0  Rx     09F80103  8  D9 D2 FB 1C 15 CD 91 05 
   973)      8709.3  Rx     09F11201  8  FF 52 7A FF 7F FF 7F FD 
   974)      8710.0  Rx     09F10D01  8  00 F8 FF 7F 5F B8 FF FF 
   975)      8762.2  Rx     09F21406  8  01 75 05 FF 7F FF FF FF 
   976)      8792.1  Rx     09F80103  8  E3 D2 FB 1C 06 CD 91 05 
   977)      8810.0  Rx     09F11201  8  FF 52 7A FF 7F FF 7F FD 
   978)      8810.6  Rx     09F10D01  8  00 F8 FF 7F 5F B8 FF FF 
   979)      8842.0  Rx     09F80203  8  FF FC 9C D4 90 00 FF FF 
   980)      8862.2  Rx     09F21406  8  01 75 05 FF 7F FF FF FF 
   981)      8892.0  Rx     09F80103  8  ED D2 FB 1C F7 CC 91 05 
   982)      8910.7  Rx     09F11201  8  FF 50 7A FF 7F FF 7F FD 
   983)      8911.4  Rx     09F10D01  8  00 F8 FF 7F 5F B8 FF FF 
   984)      8962.2  Rx     09F21406  8  01 75 05 FF 7F FF FF FF 
   985)      8963.9  Rx     1DEFFF03  8  20 0E E5 98 FD 09 0B 0B 
   986)      8964.8  Rx     1DEFFF03  8  21 01 00 01 00 06 00 00 
   987)      8965.9  Rx     1DEFFF03  8  22 00 FF FF FF FF FF FF 
   988)      8981.1  Rx     1DEFFF03  8  40 2A E5 98 61 06 02 02 
   989)      8981.9  Rx     1DEFFF03  8  41 FF FF FF FF 03 03 00 
   990)      8982.8  Rx     1DEFFF03  8  42 00 FF FF FF FF FF FF 
   991)      8983.8  Rx     1DEFFF03  8  43 FF FF FF FF 00 00 FF 
   992)      8984.8  Rx     1DEFFF03  8  44 FF FF 7F FF FF FF 7F 
   993)      8985.8  Rx     1DEFFF03  8  45 FF FF FF 7F 00 00 FF 
   994)      8986.8  Rx     1DEFFF03  8  46 7F FF FF FF FF FF FF 
   995)      8987.8  Rx     1DEFFF03  8  60 1D E5 98 12 07 02 02 
   996)      8988.4  Rx     1DEF0109  8  00 0B E5 98 DA 04 04 04 
   997)      8989.0  Rx     1DEFFF03  8  61 FF FF FF FF FF FF FF 
   998)      8989.5  Rx     1DEF0109  8  01 36 FF 03 01 00 FF FF 
   999)      8990.1  Rx     1DEFFF03  8  62 FF FF FF FF FF FF FF 
  1000)      8990.8  Rx     1DEFFF03  8  63 FF FF FF FF 7F FF FF 
  1001)      8991.8  Rx     1DEFFF03  8  64 FF 7F FF FF FF FF FF 
  1002)      8992.8  Rx     0DF90403  8  40 22 FF FF FF FF FF 0F 
  1003)      8993.4  Rx     1DEFFF01  8  00 CE E5 98 D8 04 04 04 
  1004)      8994.0  Rx     0DF90403  8  41 FF FF FF FF FF FF FF 
  1005)      8994.5  Rx     1DEFFF01  8  01 00 00 7A 44 13 66 48 
  1006)      8995.1  Rx     0DF90403  8  42 FF FF FF FF FF FF FF 
  1007)      8995.7  Rx     1DEFFF01  8  02 40 FB B0 E9 37 00 00 
  1008)      8996.3  Rx     0DF90403  8  43 FF FF FF FF FF FF FF 
  1009)      8996.8  Rx     1DEFFF01  8  03 00 00 6F 12 03 3B 3E 
  1010)      8997.4  Rx     1DEFFF01  8  04 0A 24 43 C2 B8 32 3E 
  1011)      8998.0  Rx     0DF90403  8  44 7F FF FF FF 7F FF 7F 
  1012)      8998.5  Rx     1DEFFF01  8  05 A6 0A 06 3F 2C 01 70 
  1013)      8999.1  Rx     0DF90303  8  FF F0 FF FF FF 7F FF FF 
  1014)      8999.7  Rx     1DEFFF01  8  06 17 F4 01 70 17 5A 00 
  1015)      9000.2  Rx     09F80103  8  F8 D2 FB 1C E9 CC 91 05 
  1016)      9000.8  Rx     1DEFFF01  8  07 0A 2D 06 E4 00 01 01 
  1017)      9001.4  Rx     1DEFFF01  8  08 00 00 01 04 3E 00 49 
  1018)      9002.0  Rx     1DEFFF01  8  09 27 49 27 17 44 42 32 
  1019)      9002.5  Rx     1CEF0304  6  E5 98 ED 04 04 04 
  1020)      9003.1  Rx     1DEFFF01  8  0A 32 01 01 00 01 01 01 
  1021)      9003.9  Rx     1DEFFF01  8  0B 01 01 01 00 01 01 00 
  1022)      9004.5  Rx     1DEFFF01  8  0C 01 00 00 F9 12 06 3D 
  1023)      9005.1  Rx     1DEFFF01  8  0D 0A 0B 0C 00 FF 03 01 
  1024)      9005.7  Rx     1DEFFF01  8  0E 00 00 03 01 00 02 FF 
  1025)      9006.3  Rx     1DEFFF01  8  0F 00 00 00 90 00 0A FF 
  1026)      9006.9  Rx     1DEFFF01  8  10 FF FF 01 00 00 00 00 
  1027)      9007.5  Rx     1DEFFF01  8  11 4A 9F A4 41 F2 8B C5 
  1028)      9008.1  Rx     1DEFFF01  8  12 40 02 00 00 00 0F 00 
  1029)      9008.7  Rx     1DEFFF01  8  13 02 00 98 00 00 00 00 
  1030)      9009.3  Rx     1DEFFF01  8  14 0C 5A 64 E8 03 00 0C 
  1031)      9009.9  Rx     1DEFFF01  8  15 00 00 00 41 00 00 80 
  1032)      9010.5  Rx     1DEFFF01  8  16 3F 00 00 80 3F 00 00 
  1033)      9011.1  Rx     1DEFFF01  8  17 80 3F 34 33 AB 41 CB 
  1034)      9011.7  Rx     1DEFFF01  8  18 A1 45 3E AE 58 B7 40 
  1035)      9012.3  Rx     1DEFFF01  8  19 00 01 01 00 2D 2D 0F 
  1036)      9012.9  Rx     1DEFFF01  8  1A 00 00 32 01 00 00 00 
  1037)      9013.5  Rx     1DEFFF01  8  1B 00 00 F3 66 DF 3F FF 
  1038)      9014.1  Rx     1DEFFF01  8  1C FF 01 00 FF FF 01 00 
  1039)      9014.7  Rx     1DEFFF01  8  1D 20 00 04 00 FF FF FF 
  1040)      9015.3  Rx     1DEFFF01  8  20 5E E5 98 14 05 04 04 
  1041)      9015.9  Rx     1DEFFF01  8  21 00 00 00 00 3F 00 00 
  1042)      9016.5  Rx     1DEFFF01  8  22 00 00 00 61 18 0B 49 
  1043)      9017.1  Rx     1DEFFF01  8  23 4A 40 C8 97 48 40 CE 
  1044)      9017.7  Rx     1DEFFF01  8  24 67 48 40 EB B7 61 3D 
  1045)      9018.3  Rx     1DEFFF01  8  25 16 07 29 BA 00 00 80 
  1046)      9018.9  Rx     1DEFFF01  8  26 3F 00 00 E4 FE 05 00 
  1047)      9019.5  Rx     1DEFFF01  8  27 02 10 00 00 00 00 00 
  1048)      9020.1  Rx     1DEFFF01  8  28 00 00 00 1F 00 00 00 
  1049)      9020.7  Rx     1DEFFF01  8  29 00 00 00 00 5C 05 00 
  1050)      9021.3  Rx     1DEFFF01  8  2A 00 00 00 27 BE FF FF 
  1051)      9021.9  Rx     1DEFFF01  8  2B 00 00 00 00 00 00 00 
  1052)      9022.5  Rx     1DEFFF01  8  2C 19 80 3F 00 00 00 00 
  1053)      9023.2  Rx     1DEFFF01  8  2D 01 00 80 3F FF FF FF 
  1054)      9023.8  Rx     09F11201  8  FF 50 7A FF 7F FF 7F FD 
  1055)      9024.4  Rx     09F10D01  8  00 F8 FF 7F 5F B8 FF FF 
  1056)      9062.2  Rx     09F21406  8  01 75 05 FF 7F FF FF FF 
  1057)      9092.1  Rx     09F80203  8  FF FC 9C D4 90 00 FF FF 
  1058)      9092.8  Rx     09F80103  8  02 D3 FB 1C DA CC 91 05 
  1059)      9112.2  Rx     09F11201  8  FF 4F 7A FF 7F FF 7F FD 
  1060)      9112.8  Rx     09F10D01  8  00 F8 FF 7F 5F B8 FF FF 
  1061)      9127.4  Rx     1CEF0309  6  E5 98 ED 04 04 04 
  1062)      9162.2  Rx     09F21406  8  01 75 05 FF 7F FF FF FF 
  1063)      9189.6  Rx     1DEFFF09  8  20 0A E5 98 6C 07 02 02 
  1064)      9190.1  Rx     1DEFFF09  8  21 16 00 01 00 FF FF FF 
  1065)      9190.6  Rx     19F11A09  6  FF F2 DF 40 47 01 
  1066)      9192.2  Rx     1DEFFF06  8  80 0A E5 98 9B 08 04 04 
  1067)      9192.7  Rx     09F80103  8  0C D3 FB 1C CC CC 91 05 
  1068)      9193.3  Rx     1DEFFF06  8  81 01 00 33 E3 FF FF FF 
  1069)      9209.4  Rx     1DEFFF04  8  40 26 E5 98 FC 03 08 08 
  1070)      9210.1  Rx     1DEFFF04  8  41 01 00 00 00 F0 53 BD 
  1071)      9210.7  Rx     1DEFFF04  8  42 1C 00 CD 78 C0 00 00 
  1072)      9211.4  Rx     1DEFFF04  8  43 00 00 FF FF FF FF 00 
  1073)      9212.0  Rx     1DEFFF04  8  44 00 00 00 FF FF FF FF 
  1074)      9212.7  Rx     1DEFFF04  8  45 00 00 02 00 FF FF FF 
  1075)      9213.3  Rx     09F11201  8  FF 50 7A FF 7F FF 7F FD 
  1076)      9213.9  Rx     09F10D01  8  00 F8 FF 7F 5F B8 FF FF 
  1077)      9262.2  Rx     09F21406  8  01 75 05 FF 7F FF FF FF 
  1078)      9280.6  Rx     1DEFFF09  8  40 11 E5 98 E7 08 0A 0A 
  1079)      9281.2  Rx     1DEFFF09  8  41 03 01 03 0D DB A6 D2 
  1080)      9281.7  Rx     1DEFFF09  8  42 CA 02 11 00 FF FF FF 
  1081)      9292.2  Rx     09F80103  8  16 D3 FB 1C BD CC 91 05 
  1082)      9313.6  Rx     09F11201  8  FF 50 7A FF 7F FF 7F FD 
  1083)      9314.3  Rx     09F10D01  8  00 F8 FF 7F 5F B8 FF FF 
  1084)      9342.1  Rx     09F80203  8  FF FC 9C D4 90 00 FF FF 
  1085)      9362.2  Rx     09F21406  8  01 75 05 FF 7F FF FF FF 
  1086)      9392.0  Rx     09F80103  8  20 D3 FB 1C AF CC 91 05 
  1087)      9405.4  Rx     1CEFFF01  7  E5 98 5B 07 04 04 00 
  1088)      9414.3  Rx     09F11201  8  FF 50 7A FF 7F FF 7F FD 
  1089)      9414.9  Rx     09F10D01  8  00 F8 FF 7F 5F B8 FF FF 
  1090)      9431.5  Rx     1DEFFF03  8  80 11 E5 98 E7 08 0A 0A 
  1091)      9432.8  Rx     1DEFFF03  8  81 03 01 03 0D DB A6 D2 
  1092)      9433.8  Rx     1DEFFF03  8  82 CA 02 11 00 FF FF FF 
  1093)      9462.2  Rx     09F21406  8  01 75 05 FF 7F FF FF FF 
  1094)      9492.0  Rx     09F80103  8  2A D3 FB 1C A0 CC 91 05 
  1095)      9515.0  Rx     09F11201  8  FF 4F 7A FF 7F FF 7F FD 
  1096)      9515.7  Rx     09F10D01  8  00 F8 FF 7F 5F B8 FF FF 
  1097)      9562.2  Rx     09F21406  8  01 75 05 FF 7F FF FF FF 
  1098)      9592.2  Rx     0DF80503  8  60 2B FF DF 40 D6 5E BC 
  1099)      9592.9  Rx     0DF80503  8  61 22 80 88 C9 69 08 90 
  1100)      9593.8  Rx     0DF80503  8  62 BF 06 30 BB 4A B2 3F 
  1101)      9594.9  Rx     0DF80503  8  63 F8 4B 01 C0 86 3B 14 
  1102)      9595.8  Rx     0DF80503  8  64 00 00 00 00 10 FC 01 
  1103)      9596.8  Rx     0DF80503  8  65 AC 26 AC 26 4A 12 00 
  1104)      9597.8  Rx     0DF80503  8  66 00 00 FF FF FF FF FF 
  1105)      9598.8  Rx     1DF11A04  6  FF F2 DF 40 47 01 
  1106)      9599.3  Rx     19F11A03  6  FF F2 DF 40 47 01 
  1107)      9599.8  Rx     0DF90404  8  A0 22 FF FF FF FF FF 0F 
  1108)      9600.5  Rx     0DF90404  8  A1 FF FF FF FF FF FF FF 
  1109)      9601.1  Rx     19FA0403  8  20 87 FF FF 0B 10 22 24 
  1110)      9601.7  Rx     0DF90404  8  A2 FF FF FF FF FF FF FF 
  1111)      9602.2  Rx     19FA0403  8  21 93 CE 98 08 FF FF FF 
  1112)      9602.8  Rx     0DF90404  8  A3 FF FF FF FF FF FF FF 
  1113)      9603.4  Rx     19FA0403  8  22 7F F1 1D 68 12 96 38 
  1114)      9603.9  Rx     0DF90404  8  A4 7F FF FF FF 7F FF 7F 
  1115)      9604.6  Rx     1DEFFF04  8  60 2A E5 98 61 06 02 02 
  1116)      9605.2  Rx     19FA0403  8  23 C4 09 FF FF FF 7F F2 
  1117)      9605.7  Rx     1DEFFF04  8  61 FF FF FF FF 03 03 00 
  1118)      9606.3  Rx     19FA0403  8  24 15 73 32 B9 3E 08 07 
  1119)      9606.9  Rx     1DEFFF04  8  62 00 FF FF FF FF FF FF 
  1120)      9607.5  Rx     1DEFFF04  8  63 FF FF FF FF 00 00 FF 
  1121)      9608.1  Rx     19FA0403  8  25 FF FF FF 7F F1 14 D1 
  1122)      9608.7  Rx     1DEFFF04  8  64 FF FF 7F FF FF FF 7F 
  1123)      9609.3  Rx     19FA0403  8  26 15 B9 2F 14 05 FF FF 
  1124)      9609.8  Rx     1DEFFF04  8  65 FF FF FF 7F 00 00 FF 
  1125)      9610.5  Rx     1DEFFF04  8  66 7F FF FF FF FF FF FF 
  1126)      9611.0  Rx     19FA0403  8  27 FF 7F F1 16 0B 02 A0 
  1127)      9611.6  Rx     0DF90304  8  FF F0 FF FF FF 7F FF FF 
  1128)      9612.2  Rx     19FA0403  8  28 76 40 06 FF FF FF 7F 
  1129)      9612.8  Rx     1DEFFF04  8  80 1D E5 98 12 07 02 02 
  1130)      9613.3  Rx     19FA0403  8  29 F0 1B B9 11 88 BD 78 
  1131)      9613.9  Rx     1DEFFF04  8  81 FF FF FF FF FF FF FF 
  1132)      9614.5  Rx     1DEFFF04  8  82 FF FF FF FF FF FF FF 
  1133)      9615.1  Rx     19FA0403  8  2A 05 FF FF FF 7F F0 05 
  1134)      9615.7  Rx     1DEFFF04  8  83 FF FF FF FF 7F FF FF 
  1135)      9616.3  Rx     09F11201  8  FF 4F 7A FF 7F FF 7F FD 
  1136)      9616.8  Rx     19FA0403  8  2B 74 05 73 14 9C FF FF 
  1137)      9617.4  Rx     09F10D01  8  00 F8 FF 7F 5F B8 FF FF 
  1138)      9618.0  Rx     1DEFFF04  8  84 FF 7F FF FF FF FF FF 
  1139)      9618.5  Rx     19FA0403  8  2C FF FF 7F F0 12 5C 10 
  1140)      9619.0  Rx     1CEF0304  6  E5 98 ED 04 04 04 
  1141)      9619.9  Rx     19FA0403  8  2D DB 62 9C FF FF FF FF 
  1142)      9621.0  Rx     19FA0403  8  2E 7F F0 19 5D 01 72 5F 
  1143)      9621.9  Rx     19FA0403  8  2F 9C FF FF FF FF 7F F0 
  1144)      9622.8  Rx     19FA0403  8  30 1A D0 33 5A A6 9C FF 
  1145)      9623.9  Rx     19FA0403  8  31 FF FF FF 7F F0 1F 97 
  1146)      9625.0  Rx     19FA0403  8  32 0B DA 8F 9C FF FF FF 
  1147)      9625.9  Rx     19FA0403  8  33 FF 7F F0 FF FF FF FF 
  1148)      9626.9  Rx     19FA0303  8  FF DA AC 26 AC 26 00 00 
  1149)      9627.6  Rx     1CEF0309  6  E5 98 ED 04 04 04 
  1150)      9628.2  Rx     1DEFFF03  8  A0 3E E5 98 17 00 04 04 
  1151)      9628.9  Rx     1DEFFF03  8  A1 DE D8 D8 42 B2 FE E9 
  1152)      9629.8  Rx     1DEFFF03  8  A2 42 12 83 1F 43 00 00 
  1153)      9630.9  Rx     1DEFFF03  8  A3 00 00 00 00 00 00 00 
  1154)      9631.9  Rx     1DEFFF03  8  A4 00 00 00 00 00 00 00 
  1155)      9632.9  Rx     1DEFFF03  8  A5 00 00 00 00 00 00 00 
  1156)      9633.9  Rx     1DEFFF03  8  A6 00 00 00 C6 42 00 00 
  1157)      9634.8  Rx     1DEFFF03  8  A7 C6 42 00 00 C6 42 00 
  1158)      9635.9  Rx     1DEFFF03  8  A8 00 00 00 00 00 00 00 
  1159)      9636.9  Rx     09F80203  8  FF FC 9C D4 90 00 FF FF 
  1160)      9637.9  Rx     09F80103  8  35 D3 FB 1C 92 CC 91 05 
  1161)      9662.2  Rx     09F21406  8  01 75 05 FF 7F FF FF FF 
  1162)      9692.4  Rx     09F80103  8  3F D3 FB 1C 83 CC 91 05 
  1163)      9716.5  Rx     09F11201  8  FF 50 7A FF 7F FF 7F FD 
  1164)      9717.1  Rx     09F10D01  8  00 F8 FF 7F 5F B8 FF FF 
  1165)      9762.2  Rx     09F21406  8  01 75 05 FF 7F FF FF FF 
  1166)      9792.3  Rx     09F80103  8  49 D3 FB 1C 75 CC 91 05 
  1167)      9817.2  Rx     09F11201  8  FF 50 7A FF 7F FF 7F FD 
  1168)      9817.8  Rx     09F10D01  8  00 F8 FF 7F 5F B8 FF FF 
  1169)      9842.1  Rx     09F80203  8  FF FC 9C D4 90 00 FF FF 
  1170)      9862.2  Rx     09F21406  8  01 75 05 FF 7F FF FF FF 
  1171)      9892.1  Rx     09F80103  8  53 D3 FB 1C 66 CC 91 05 
  1172)      9917.9  Rx     09F11201  8  FF 4F 7A FF 7F FF 7F FD 
  1173)      9918.5  Rx     09F10D01  8  00 F8 FF 7F 5F B8 FF FF 
  1174)      9962.2  Rx     09F21406  8  01 75 05 FF 7F FF FF FF 
  1175)      9981.1  Rx     1DEFFF03  8  C0 2A E5 98 61 06 02 02 
  1176)      9981.9  Rx     1DEFFF03  8  C1 FF FF FF FF 03 03 00 
  1177)      9982.9  Rx     1DEFFF03  8  C2 00 FF FF FF FF FF FF 
  1178)      9983.9  Rx     1DEFFF03  8  C3 FF FF FF FF 00 00 FF 
  1179)      9984.9  Rx     1DEFFF03  8  C4 FF FF 7F FF FF FF 7F 
  1180)      9985.9  Rx     1DEFFF03  8  C5 FF FF FF 7F 00 00 FF 
  1181)      9986.9  Rx     1DEFFF03  8  C6 7F FF FF FF FF FF FF 
  1182)      9987.8  Rx     1DEFFF03  8  E0 1D E5 98 12 07 02 02 
  1183)      9988.9  Rx     1DEFFF03  8  E1 FF FF FF FF FF FF FF 
  1184)      9989.8  Rx     1DEFFF03  8  E2 FF FF FF FF FF FF FF 
  1185)      9990.9  Rx     1DEFFF03  8  E3 FF FF FF FF 7F FF FF 
  1186)      9991.9  Rx     1DEFFF03  8  E4 FF 7F FF FF FF FF FF 
  1187)      9992.9  Rx     0DF90403  8  60 22 FF FF FF FF FF 0F 
  1188)      9993.9  Rx     0DF90403  8  61 FF FF FF FF FF FF FF 
  1189)      9994.9  Rx     0DF90403  8  62 FF FF FF FF FF FF FF 
  1190)      9995.9  Rx     0DF90403  8  63 FF FF FF FF FF FF FF 
  1191)      9996.8  Rx     0DF90403  8  64 7F FF FF FF 7F FF 7F 
  1192)      9997.9  Rx     0DF90303  8  FF F0 FF FF FF 7F FF FF 
  1193)      9998.9  Rx     09F80103  8  5D D3 FB 1C 58 CC 91 05 
  1194)     10018.6  Rx     09F11201  8  FF 50 7A FF 7F FF 7F FD 
  1195)     10019.2  Rx     09F10D01  8  00 F8 FF 7F 5F B8 FF FF 
  1196)     10062.3  Rx     09F21406  8  01 75 05 FF 7F FF FF FF 
  1197)     10089.6  Rx     1CEFFF09  6  E5 98 17 05 04 04 
  1198)     10092.1  Rx     09F80203  8  FF FC 9C D4 90 00 FF FF 
  1199)     10092.8  Rx     09F80103  8  67 D3 FB 1C 49 CC 91 05 
  1200)     10106.5  Rx     1CEF0304  6  E5 98 ED 04 04 04 
  1201)     10119.3  Rx     09F11201  8  FF 50 7A FF 7F FF 7F FD 
  1202)     10119.9  Rx     09F10D01  8  00 F8 FF 7F 5F B8 FF FF 
  1203)     10127.5  Rx     1CEF0309  6  E5 98 ED 04 04 04 
  1204)     10133.5  Rx     1DEFFF04  8  A0 26 E5 98 FC 03 08 08 
  1205)     10134.2  Rx     1DEFFF04  8  A1 01 00 00 00 F0 53 BD 
  1206)     10134.8  Rx     1DEFFF04  8  A2 1C 00 CD 78 C0 00 00 
  1207)     10135.5  Rx     1DEFFF04  8  A3 00 00 FF FF FF FF 00 
  1208)     10136.1  Rx     1DEFFF04  8  A4 00 00 00 FF FF FF FF 
  1209)     10136.7  Rx     1DEFFF04  8  A5 00 00 02 00 FF FF FF 
  1210)     10162.2  Rx     09F21406  8  01 75 05 FF 7F FF FF FF 
  1211)     10187.4  Rx     18EA0304  3  14 F0 01 
  1212)     10188.1  Rx     19F01403  8  60 86 14 05 84 50 47 50 
  1213)     10188.8  Rx     19F01403  8  61 53 4D 41 50 20 38 32 
  1214)     10189.6  Rx     1DEFFF09  8  60 0A E5 98 6C 07 02 02 
  1215)     10190.2  Rx     19F01403  8  62 30 00 00 00 00 00 00 
  1216)     10190.8  Rx     1DEFFF09  8  61 16 00 01 00 FF FF FF 
  1217)     10191.3  Rx     19F01403  8  63 00 00 00 00 00 00 00 
  1218)     10191.8  Rx     19F11A09  6  FF F2 DF 40 47 01 
  1219)     10192.4  Rx     1DEFFF06  8  A0 0A E5 98 9B 08 04 04 
  1220)     10193.0  Rx     19F01403  8  64 00 00 00 00 00 00 00 
  1221)     10193.5  Rx     1DEFFF06  8  A1 01 00 33 E3 FF FF FF 
  1222)     10194.1  Rx     19F01403  8  65 00 00 34 2E 35 30 00 
  1223)     10194.9  Rx     19F01403  8  66 00 00 00 00 00 00 00 
  1224)     10195.9  Rx     19F01403  8  67 00 00 00 00 00 00 00 
  1225)     10196.9  Rx     19F01403  8  68 00 00 00 00 00 00 00 
  1226)     10197.8  Rx     19F01403  8  69 00 00 00 00 00 00 31 
  1227)     10198.9  Rx     19F01403  8  6A 2E 30 00 00 00 00 00 
  1228)     10199.9  Rx     19F01403  8  6B 00 00 00 00 00 00 00 
  1229)     10200.9  Rx     19F01403  8  6C 00 00 00 00 00 00 00 
  1230)     10201.9  Rx     19F01403  8  6D 00 00 00 00 00 00 00 
  1231)     10202.8  Rx     19F01403  8  6E 00 00 00 33 38 38 38 
  1232)     10203.8  Rx     19F01403  8  6F 34 35 32 30 30 34 00 
  1233)     10204.9  Rx     19F01403  8  70 00 00 00 00 00 00 00 
  1234)     10205.9  Rx     19F01403  8  71 00 00 00 00 00 00 00 
  1235)     10206.9  Rx     19F01403  8  72 00 00 00 00 00 00 00 
  1236)     10207.9  Rx     19F01403  8  73 01 02 FF FF FF FF FF 
  1237)     10208.8  Rx     09F80103  8  72 D3 FB 1C 3B CC 91 05 
  1238)     10220.0  Rx     09F11201  8  FF 50 7A FF 7F FF 7F FD 
  1239)     10220.6  Rx     09F10D01  8  00 F8 FF 7F 5F B8 FF FF 
  1240)     10262.2  Rx     09F21406  8  01 75 05 FF 7F FF FF FF 
  1241)     10280.7  Rx     1DEFFF09  8  80 11 E5 98 E7 08 0A 0A 
  1242)     10281.2  Rx     1DEFFF09  8  81 03 01 03 0D DB A6 D2 
  1243)     10281.8  Rx     1DEFFF09  8  82 CA 02 11 00 FF FF FF 
  1244)     10292.1  Rx     09F80103  8  7C D3 FB 1C 2C CC 91 05 
  1245)     10320.7  Rx     09F11201  8  FF 4E 7A FF 7F FF 7F FD 
  1246)     10321.3  Rx     09F10D01  8  00 F8 FF 7F 5F B8 FF FF 
  1247)     10342.1  Rx     09F80203  8  FF FC 9C D4 90 00 FF FF 
  1248)     10362.2  Rx     09F21406  8  01 75 05 FF 7F FF FF FF 
  1249)     10392.1  Rx     09F80103  8  86 D3 FB 1C 1D CC 91 05 
  1250)     10421.4  Rx     09F11201  8  FF 4D 7A FF 7F FF 7F FD 
  1251)     10422.0  Rx     09F10D01  8  00 F8 FF 7F 5F B8 FF FF 
  1252)     10431.3  Rx     1DEFFF03  8  00 11 E5 98 E7 08 0A 0A 
  1253)     10432.8  Rx     1DEFFF03  8  01 03 01 03 0D DB A6 D2 
  1254)     10433.9  Rx     1DEFFF03  8  02 CA 02 11 00 FF FF FF 
  1255)     10456.7  Rx     1CEFFF01  7  E5 98 5B 07 04 04 00 
  1256)     10462.2  Rx     09F21406  8  01 75 05 FF 7F FF FF FF 
  1257)     10492.1  Rx     09F80103  8  90 D3 FB 1C 0F CC 91 05 
  1258)     10522.1  Rx     09F11201  8  FF 4B 7A FF 7F FF 7F FD 
  1259)     10522.8  Rx     09F10D01  8  00 F8 FF 7F 5F B8 FF FF 
  1260)     10562.2  Rx     09F21406  8  01 75 05 FF 7F FF FF FF 
  1261)     10592.2  Rx     0DF80503  8  80 2B FF DF 40 E6 85 BC 
  1262)     10592.9  Rx     0DF80503  8  81 22 C0 40 A5 15 20 90 
  1263)     10593.9  Rx     0DF80503  8  82 BF 06 40 CA 77 D9 1D 
  1264)     10594.9  Rx     0DF80503  8  83 F8 4B 01 E0 A5 3B 14 
  1265)     10595.9  Rx     0DF80503  8  84 00 00 00 00 10 FC 01 
  1266)     10596.9  Rx     0DF80503  8  85 AC 26 AC 26 4A 12 00 
  1267)     10597.9  Rx     0DF80503  8  86 00 00 FF FF FF FF FF 
  1268)     10598.8  Rx     19F11A03  6  FF F2 DF 40 47 01 
  1269)     10599.9  Rx     19FA0403  8  40 87 FF FF 0B 10 22 24 
  1270)     10600.9  Rx     19FA0403  8  41 93 CE 98 08 FF FF FF 
  1271)     10601.9  Rx     19FA0403  8  42 7F F1 1D 68 12 96 38 
  1272)     10602.9  Rx     19FA0403  8  43 60 09 FF FF FF 7F F2 
  1273)     10603.9  Rx     19FA0403  8  44 15 73 32 B9 3E 08 07 
  1274)     10604.9  Rx     19FA0403  8  45 FF FF FF 7F F1 14 D1 
  1275)     10605.9  Rx     19FA0403  8  46 15 B9 2F 14 05 FF FF 
  1276)     10606.9  Rx     19FA0403  8  47 FF 7F F1 16 0B 02 A0 
  1277)     10607.9  Rx     19FA0403  8  48 76 40 06 FF FF FF 7F 
  1278)     10608.9  Rx     19FA0403  8  49 F0 1B B9 11 88 BD 78 
  1279)     10609.9  Rx     19FA0403  8  4A 05 FF FF FF 7F F0 05 
  1280)     10610.9  Rx     19FA0403  8  4B 74 05 73 14 9C FF FF 
  1281)     10611.9  Rx     19FA0403  8  4C FF FF 7F F0 12 5C 10 
  1282)     10612.9  Rx     19FA0403  8  4D DB 62 9C FF FF FF FF 
  1283)     10613.9  Rx     19FA0403  8  4E 7F F0 19 5D 01 72 5F 
  1284)     10614.9  Rx     19FA0403  8  4F 9C FF FF FF FF 7F F0 
  1285)     10615.9  Rx     19FA0403  8  50 1A D0 33 5A A6 9C FF 
  1286)     10616.9  Rx     19FA0403  8  51 FF FF FF 7F F0 1F 97 
  1287)     10617.9  Rx     19FA0403  8  52 0B DA 8F 9C FF FF FF 
  1288)     10618.9  Rx     19FA0403  8  53 FF 7F F0 FF FF FF FF 
  1289)     10619.9  Rx     19FA0303  8  FF DA AC 26 AC 26 00 00 
  1290)     10620.9  Rx     1DEFFF03  8  20 3E E5 98 17 00 04 04 
  1291)     10621.9  Rx     1DEFFF03  8  21 DE D8 D8 42 B2 FE E9 
  1292)     10622.9  Rx     09F11201  8  FF 49 7A FF 7F FF 7F FD 
  1293)     10623.4  Rx     1DEFFF03  8  22 42 12 83 1F 43 00 00 
  1294)     10624.0  Rx     09F10D01  8  00 F8 FF 7F 5F B8 FF FF 
  1295)     10624.9  Rx     1DEFFF03  8  23 00 00 00 00 00 00 00 
  1296)     10625.9  Rx     1DEFFF03  8  24 00 00 00 00 00 00 00 
  1297)     10627.0  Rx     1DEFFF03  8  25 00 00 00 00 00 00 00 
  1298)     10627.9  Rx     1DEFFF03  8  26 00 00 00 C6 42 00 00 
  1299)     10628.9  Rx     1DEFFF03  8  27 C6 42 00 00 C6 42 00 
  1300)     10630.0  Rx     1DEFFF03  8  28 00 00 00 00 00 00 00 
  1301)     10630.9  Rx     09F80203  8  FF FC 9C D4 90 00 FF FF 
  1302)     10631.9  Rx     09F80103  8  9A D3 FB 1C 00 CC 91 05 
  1303)     10662.3  Rx     09F21406  8  01 75 05 FF 7F FF FF FF 
  1304)     10684.4  Rx     1DEFFF03  8  40 0E E5 98 E0 08 02 02 
  1305)     10685.9  Rx     1DEFFF03  8  41 03 09 00 12 E8 07 19 
  1306)     10686.9  Rx     1DEFFF03  8  42 00 FF FF FF FF FF FF 
  1307)     10687.9  Rx     1DEFFF03  8  60 0E E5 98 E0 08 02 02 
  1308)     10688.9  Rx     1DEFFF03  8  61 03 09 01 12 E8 07 19 
  1309)     10689.9  Rx     1DEFFF03  8  62 00 FF FF FF FF FF FF 
  1310)     10692.1  Rx     09F80103  8  A4 D3 FB 1C F2 CB 91 05 
  1311)     10719.7  Rx     1CEF0304  8  E5 98 0A 00 02 02 A4 00 
  1312)     10720.7  Rx     1DEF0403  8  80 4A E5 98 F5 00 02 02 
  1313)     10721.9  Rx     1DEF0403  8  81 47 50 53 4D 41 50 20 
  1314)     10722.9  Rx     1DEF0403  8  82 38 32 30 00 00 00 00 
  1315)     10723.7  Rx     09F11201  8  FF 48 7A FF 7F FF 7F FD 
  1316)     10724.3  Rx     1DEF0403  8  83 00 00 00 00 00 00 00 
  1317)     10724.8  Rx     09F10D01  8  00 F8 FF 7F 5F B8 FF FF 
  1318)     10725.4  Rx     1DEF0403  8  84 00 00 00 00 00 00 00 
  1319)     10726.9  Rx     1DEF0403  8  85 00 00 00 00 06 07 08 
  1320)     10727.9  Rx     1DEF0403  8  86 00 B8 01 05 01 C2 01 
  1321)     10728.9  Rx     1DEF0403  8  87 0E 01 C2 01 33 01 C2 
  1322)     10729.9  Rx     1DEF0403  8  88 01 A2 01 00 00 0A 01 
  1323)     10730.9  Rx     1DEF0403  8  89 00 00 03 01 C8 00 10 
  1324)     10731.9  Rx     1DEF0403  8  8A 01 C2 01 A4 01 FF FF 
  1325)     10762.3  Rx     09F21406  8  01 75 05 FF 7F FF FF FF 
  1326)     10792.2  Rx     09F80103  8  AF D3 FB 1C E3 CB 91 05 
  1327)     10824.3  Rx     09F11201  8  FF 4B 7A FF 7F FF 7F FD 
  1328)     10824.9  Rx     09F10D01  8  00 F8 FF 7F 5F B8 FF FF 
  1329)     10842.2  Rx     09F80203  8  FF FC 9C D4 90 00 FF FF 
  1330)     10848.7  Rx     1DF11A04  6  FF F2 DF 40 47 01 
  1331)     10849.4  Rx     0DF90404  8  C0 22 FF FF FF FF FF 0F 
  1332)     10850.0  Rx     0DF90404  8  C1 FF FF FF FF FF FF FF 
  1333)     10850.7  Rx     0DF90404  8  C2 FF FF FF FF FF FF FF 
  1334)     10851.3  Rx     0DF90404  8  C3 FF FF FF FF FF FF FF 
  1335)     10852.0  Rx     0DF90404  8  C4 7F FF FF FF 7F FF 7F 
  1336)     10852.6  Rx     1DEFFF04  8  C0 2A E5 98 61 06 02 02 
  1337)     10853.2  Rx     1DEFFF04  8  C1 FF FF FF FF 03 03 00 
  1338)     10853.8  Rx     1DEFFF04  8  C2 00 FF FF FF FF FF FF 
  1339)     10854.5  Rx     1DEFFF04  8  C3 FF FF FF FF 00 00 FF 
  1340)     10855.1  Rx     1DEFFF04  8  C4 FF FF 7F FF FF FF 7F 
  1341)     10855.8  Rx     1DEFFF04  8  C5 FF FF FF 7F 00 00 FF 
  1342)     10856.4  Rx     1DEFFF04  8  C6 7F FF FF FF FF FF FF 
  1343)     10857.0  Rx     0DF90304  8  FF F0 FF FF FF 7F FF FF 
  1344)     10857.6  Rx     1DEFFF04  8  E0 1D E5 98 12 07 02 02 
  1345)     10858.3  Rx     1DEFFF04  8  E1 FF FF FF FF FF FF FF 
  1346)     10858.9  Rx     1DEFFF04  8  E2 FF FF FF FF FF FF FF 
  1347)     10859.6  Rx     1DEFFF04  8  E3 FF FF FF FF 7F FF FF 
  1348)     10860.2  Rx     1DEFFF04  8  E4 FF 7F FF FF FF FF FF 
  1349)     10862.2  Rx     09F21406  8  01 75 05 FF 7F FF FF FF 
  1350)     10892.1  Rx     09F80103  8  B9 D3 FB 1C D5 CB 91 05 
  1351)     10925.0  Rx     09F11201  8  FF 4C 7A FF 7F FF 7F FD 
  1352)     10925.6  Rx     09F10D01  8  00 F8 FF 7F 5F B8 FF FF 
  1353)     10962.3  Rx     09F21406  8  01 75 05 FF 7F FF FF FF 
  1354)     10981.1  Rx     1DEFFF03  8  A0 2A E5 98 61 06 02 02 
  1355)     10981.9  Rx     1DEFFF03  8  A1 FF FF FF FF 03 03 00 
  1356)     10982.9  Rx     1DEFFF03  8  A2 00 FF FF FF FF FF FF 
  1357)     10983.9  Rx     1DEFFF03  8  A3 FF FF FF FF 00 00 FF 
  1358)     10984.9  Rx     1DEFFF03  8  A4 FF FF 7F FF FF FF 7F 
  1359)     10985.9  Rx     1DEFFF03  8  A5 FF FF FF 7F 00 00 FF 
  1360)     10986.9  Rx     1DEFFF03  8  A6 7F FF FF FF FF FF FF 
  1361)     10987.9  Rx     1DEFFF03  8  C0 1D E5 98 12 07 02 02 
  1362)     10988.9  Rx     1DEFFF03  8  C1 FF FF FF FF FF FF FF 
  1363)     10989.4  Rx     1DEFFF01  8  40 CE E5 98 D8 04 04 04 
  1364)     10990.0  Rx     1DEFFF03  8  C2 FF FF FF FF FF FF FF 
  1365)     10990.6  Rx     1DEFFF01  8  41 00 00 7A 44 7D 5F 48 
  1366)     10991.2  Rx     1DEFFF03  8  C3 FF FF FF FF 7F FF FF 
  1367)     10991.7  Rx     1DEFFF01  8  42 40 FB B0 E9 37 00 00 
  1368)     10992.3  Rx     1DEFFF03  8  C4 FF 7F FF FF FF FF FF 
  1369)     10992.9  Rx     1DEFFF01  8  43 00 00 6F 12 03 3B 3E 
  1370)     10993.4  Rx     1DEFFF01  8  44 0A 24 43 C2 B8 32 3E 
  1371)     10994.0  Rx     0DF90403  8  80 22 FF FF FF FF FF 0F 
  1372)     10994.6  Rx     1DEFFF01  8  45 A6 0A 06 3F 2C 01 70 
  1373)     10995.2  Rx     0DF90403  8  81 FF FF FF FF FF FF FF 
  1374)     10995.7  Rx     1DEFFF01  8  46 17 F4 01 70 17 5A 00 
  1375)     10996.3  Rx     0DF90403  8  82 FF FF FF FF FF FF FF 
  1376)     10996.9  Rx     1DEFFF01  8  47 0A 2D 06 E4 00 01 01 
  1377)     10997.5  Rx     1DEFFF01  8  48 00 00 01 04 3E 00 49 
  1378)     10998.1  Rx     0DF90403  8  83 FF FF FF FF FF FF FF 
  1379)     10998.6  Rx     1DEFFF01  8  49 27 49 27 17 44 42 32 
  1380)     10999.2  Rx     0DF90403  8  84 7F FF FF FF 7F FF 7F 
  1381)     10999.8  Rx     1DEFFF01  8  4A 32 01 01 00 01 01 01 
  1382)     11000.3  Rx     0DF90303  8  FF F0 FF FF FF 7F FF FF 
  1383)     11000.9  Rx     1DEFFF01  8  4B 01 01 01 00 01 01 00 
  1384)     11001.5  Rx     1DEFFF01  8  4C 01 00 00 C6 12 06 3D 
  1385)     11002.0  Rx     09F80103  8  C3 D3 FB 1C C6 CB 91 05 
  1386)     11002.6  Rx     1DEFFF01  8  4D 0A 0B 0C 00 FF 03 01 
  1387)     11003.2  Rx     1DEFFF01  8  4E 00 00 03 01 00 02 FF 
  1388)     11004.0  Rx     1DEFFF01  8  4F 00 00 00 90 00 0A FF 
  1389)     11004.7  Rx     1DEFFF01  8  50 FF FF 01 00 00 00 00 
  1390)     11005.2  Rx     1DEFFF01  8  51 4A 9F A4 41 F2 8B C5 
  1391)     11005.8  Rx     1DEFFF01  8  52 40 02 00 00 00 0F 00 
  1392)     11006.5  Rx     1DEFFF01  8  53 02 00 98 00 00 00 00 
  1393)     11007.0  Rx     1DEFFF01  8  54 0C 5A 64 E8 03 00 0C 
  1394)     11007.6  Rx     1DEFFF01  8  55 00 00 00 41 00 00 80 
  1395)     11008.2  Rx     1DEFFF01  8  56 3F 00 00 80 3F 00 00 
  1396)     11008.8  Rx     1DEFFF01  8  57 80 3F 34 33 AB 41 CB 
  1397)     11009.4  Rx     1DEFFF01  8  58 A1 45 3E AE 58 B7 40 
  1398)     11010.0  Rx     1DEFFF01  8  59 00 01 01 00 2D 2D 0F 
  1399)     11010.6  Rx     1DEFFF01  8  5A 00 00 32 01 00 00 00 
  1400)     11011.2  Rx     1DEFFF01  8  5B 00 00 F3 66 DF 3F FF 
  1401)     11011.7  Rx     1DEFFF01  8  5C FF 01 00 FF FF 01 00 
  1402)     11012.4  Rx     1DEFFF01  8  5D 20 00 04 00 FF FF FF 
  1403)     11012.9  Rx     1DEFFF01  8  60 5E E5 98 14 05 04 04 
  1404)     11013.6  Rx     1DEFFF01  8  61 00 00 00 00 3F 00 00 
  1405)     11014.2  Rx     1DEFFF01  8  62 00 00 00 00 00 E3 28 
  1406)     11014.8  Rx     1DEFFF01  8  63 4A 40 BD 77 48 40 9A 
  1407)     11015.3  Rx     1DEFFF01  8  64 5E 48 40 13 23 5F 3D 
  1408)     11015.9  Rx     1DEFFF01  8  65 98 59 4E 39 00 00 80 
  1409)     11016.5  Rx     1DEFFF01  8  66 3F 00 00 E4 FE 05 00 
  1410)     11017.1  Rx     1DEFFF01  8  67 02 10 00 00 00 00 00 
  1411)     11017.7  Rx     1DEFFF01  8  68 00 00 00 1F 00 00 00 
  1412)     11018.3  Rx     1DEFFF01  8  69 00 00 00 00 5C 05 00 
  1413)     11018.9  Rx     1DEFFF01  8  6A 00 00 00 27 BE FF FF 
  1414)     11019.6  Rx     1DEFFF01  8  6B 00 00 00 00 00 00 00 
  1415)     11020.2  Rx     1DEFFF01  8  6C 19 00 00 00 00 00 00 
  1416)     11020.8  Rx     1DEFFF01  8  6D 01 00 00 20 FF FF FF 
  1417)     11025.7  Rx     09F11201  8  FF 4C 7A FF 7F FF 7F FD 
  1418)     11026.3  Rx     09F10D01  8  00 F8 FF 7F 5F B8 FF FF 
  1419)     11062.3  Rx     09F21406  8  01 75 05 FF 7F FF FF FF 
  1420)     11092.1  Rx     09F80203  8  FF FC 9C D4 90 00 FF FF 
  1421)     11092.9  Rx     09F80103  8  CD D3 FB 1C B8 CB 91 05 
  1422)     11126.4  Rx     09F11201  8  FF 4C 7A FF 7F FF 7F FD 
  1423)     11127.0  Rx     09F10D01  8  00 F8 FF 7F 5F B8 FF FF 
  1424)     11133.7  Rx     1DEFFF04  8  00 26 E5 98 FC 03 08 08 
  1425)     11134.3  Rx     1DEFFF04  8  01 01 00 00 00 F0 53 BD 
  1426)     11135.0  Rx     1DEFFF04  8  02 1C 00 CD 78 C0 00 00 
  1427)     11135.6  Rx     1DEFFF04  8  03 00 00 FF FF FF FF 00 
  1428)     11136.3  Rx     1DEFFF04  8  04 00 00 00 FF FF FF FF 
  1429)     11137.0  Rx     1DEFFF04  8  05 00 00 02 00 FF FF FF 
  1430)     11162.3  Rx     09F21406  8  01 75 05 FF 7F FF FF FF 
  1431)     11189.7  Rx     1DEFFF09  8  A0 0A E5 98 6C 07 02 02 
  1432)     11190.3  Rx     1DEFFF09  8  A1 16 00 01 00 FF FF FF 
  1433)     11190.8  Rx     19F11A09  6  FF F2 DF 40 47 01 
  1434)     11192.2  Rx     09F80103  8  D7 D3 FB 1C A9 CB 91 05 
  1435)     11192.8  Rx     1DEFFF06  8  C0 0A E5 98 9B 08 04 04 
  1436)     11193.3  Rx     1DEFFF06  8  C1 01 00 33 E3 FF FF FF 
  1437)     11227.1  Rx     09F11201  8  FF 4D 7A FF 7F FF 7F FD 
  1438)     11227.7  Rx     09F10D01  8  00 F8 FF 7F 5F B8 FF FF 
  1439)     11262.3  Rx     09F21406  8  01 75 05 FF 7F FF FF FF 
  1440)     11280.7  Rx     1DEFFF09  8  C0 11 E5 98 E7 08 0A 0A 
  1441)     11281.3  Rx     1DEFFF09  8  C1 03 01 03 0D DB A6 D2 
  1442)     11281.9  Rx     1DEFFF09  8  C2 CA 02 11 00 FF FF FF 
  1443)     11292.1  Rx     09F80103  8  E1 D3 FB 1C 9B CB 91 05 
  1444)     11327.8  Rx     09F11201  8  FF 4D 7A FF 7F FF 7F FD 
  1445)     11328.4  Rx     09F10D01  8  00 F8 FF 7F 5F B8 FF FF 
  1446)     11342.1  Rx     09F80203  8  FF FC 9C D4 90 00 FF FF 
  1447)     11362.3  Rx     09F21406  8  01 75 05 FF 7F FF FF FF 
  1448)     11392.1  Rx     09F80103  8  EC D3 FB 1C 8C CB 91 05 
  1449)     11428.5  Rx     09F11201  8  FF 4D 7A FF 7F FF 7F FD 
  1450)     11429.1  Rx     09F10D01  8  00 F8 FF 7F 5F B8 FF FF 
  1451)     11431.2  Rx     1DEFFF03  8  E0 11 E5 98 E7 08 0A 0A 
  1452)     11431.9  Rx     1DEFFF03  8  E1 03 01 03 0D DB A6 D2 
  1453)     11432.9  Rx     1DEFFF03  8  E2 CA 02 11 00 FF FF FF 
  1454)     11462.3  Rx     09F21406  8  01 75 05 FF 7F FF FF FF 
  1455)     11492.1  Rx     09F80103  8  F6 D3 FB 1C 7E CB 91 05 
  1456)     11506.6  Rx     1CEFFF01  7  E5 98 5B 07 04 04 00 
  1457)     11529.2  Rx     09F11201  8  FF 4D 7A FF 7F FF 7F FD 
  1458)     11529.9  Rx     09F10D01  8  00 F8 FF 7F 5F B8 FF FF 
  1459)     11562.3  Rx     09F21406  8  01 75 05 FF 7F FF FF FF 
  1460)     11592.2  Rx     0DF80503  8  A0 2B FF DF 40 F6 AC BC 
  1461)     11592.9  Rx     0DF80503  8  A1 22 00 FF 80 C1 37 90 
  1462)     11593.9  Rx     0DF80503  8  A2 BF 06 40 D3 A4 00 FC 
  1463)     11594.9  Rx     0DF80503  8  A3 F7 4B 01 E0 C4 3B 14 
  1464)     11595.9  Rx     0DF80503  8  A4 00 00 00 00 10 FC 01 
  1465)     11596.9  Rx     0DF80503  8  A5 AC 26 AC 26 4A 12 00 
  1466)     11597.9  Rx     0DF80503  8  A6 00 00 FF FF FF FF FF 
  1467)     11598.8  Rx     19F11A03  6  FF F2 DF 40 47 01 
  1468)     11599.9  Rx     19FA0403  8  60 87 FF FF 0B 10 22 24 
  1469)     11600.9  Rx     19FA0403  8  61 93 CE 98 08 FF FF FF 
  1470)     11601.9  Rx     19FA0403  8  62 7F F1 1D 68 12 96 38 
  1471)     11602.9  Rx     19FA0403  8  63 60 09 FF FF FF 7F F2 
  1472)     11603.9  Rx     19FA0403  8  64 15 73 32 B9 3E A4 06 
  1473)     11604.9  Rx     19FA0403  8  65 FF FF FF 7F F1 14 D1 
  1474)     11605.9  Rx     19FA0403  8  66 15 B9 2F 14 05 FF FF 
  1475)     11606.9  Rx     19FA0403  8  67 FF 7F F1 16 0B 02 A0 
  1476)     11607.9  Rx     19FA0403  8  68 76 40 06 FF FF FF 7F 
  1477)     11608.9  Rx     19FA0403  8  69 F0 1B B9 11 88 BD 78 
  1478)     11609.9  Rx     19FA0403  8  6A 05 FF FF FF 7F F0 05 
  1479)     11610.9  Rx     19FA0403  8  6B 74 05 73 14 9C FF FF 
  1480)     11611.9  Rx     19FA0403  8  6C FF FF 7F F0 12 5C 10 
  1481)     11612.9  Rx     19FA0403  8  6D DB 62 9C FF FF FF FF 
  1482)     11613.9  Rx     19FA0403  8  6E 7F F0 19 5D 01 72 5F 
  1483)     11614.9  Rx     19FA0403  8  6F 9C FF FF FF FF 7F F0 
  1484)     11615.9  Rx     19FA0403  8  70 1A D0 33 5A A6 9C FF 
  1485)     11616.9  Rx     19FA0403  8  71 FF FF FF 7F F0 1F 97 
  1486)     11617.9  Rx     19FA0403  8  72 0B DA 8F 9C FF FF FF 
  1487)     11618.9  Rx     19FA0403  8  73 FF 7F F0 FF FF FF FF 
